;$FILEVERSION=1.1
;$STARTTIME=41281.5496458333
;
;   Start time: 07.01.2013 13:11:29.400.x
;
;   Message Number
;   |         Time Offset (ms)
;   |         |        Type
;   |         |        |        ID (hex)
;   |         |        |        |     Data Length Code
;   |         |        |        |     |   Data Bytes (hex) ...
;   |         |        |        |     |   |
;---+--   ----+----  --+--  ----+---  +  -+ -- -- -- -- -- -- --
     1)         1.7  Rx         034B  5  80 77 79 71 71 
     2)         3.0  Rx         00DD  8  0C 80 00 00 00 00 B0 7D 
     3)         3.8  Rx         0073  8  05 00 75 6A 00 80 A0 5C 
     4)         4.0  Rx         0018  8  10 04 10 00 04 FF 40 0C 
     5)         4.2  Rx         014B  8  0A 2B 0D E0 07 12 E0 DD 
     6)         4.5  Rx         0045  8  00 00 40 00 00 00 11 45 
     7)         4.7  Rx         00DE  8  00 93 07 FF 00 73 50 F8 
     8)         4.9  Rx         006D  4  40 C0 40 A1 
     9)         5.1  Rx         00FF  8  00 93 07 FF 04 00 00 FF 
    10)         5.4  Rx         01CD  8  29 DA 69 DA 29 DA D0 EA 
    11)         5.6  Rx         00D5  8  00 00 40 50 00 00 30 6E 
    12)         5.9  Rx         0104  8  00 00 03 00 FF 00 30 F0 
    13)         6.0  Rx         0178  4  00 04 00 00 
    14)         6.3  Rx         0201  8  C5 3E 82 5D 00 00 00 00 
    15)         6.5  Rx         0400  8  FD 02 04 0F D0 01 00 07 
    16)         6.8  Rx         0B41  8  7F A8 78 8D 89 7D 20 80 
    17)         7.4  Rx         03F3  8  01 90 00 C4 01 90 00 C4 
    18)         9.6  Rx         00F3  8  54 FF 01 66 1E 09 B0 BB 
    19)         9.9  Rx         03D4  8  00 00 00 00 00 00 00 00 
    20)        10.4  Rx         02F1  8  83 40 40 00 FF 70 FF FF 
    21)        10.7  Rx         02F3  8  44 FF 00 00 01 35 00 FF 
    22)        13.2  Rx         0105  8  07 E4 7F 4F 4B 8E F4 A4 
    23)        13.4  Rx         01CD  8  29 D1 69 D1 29 D1 E0 C8 
    24)        13.6  Rx         02F7  6  7F FE 00 93 FF FF 
    25)        13.8  Rx         0018  8  10 04 10 00 04 FF 50 C1 
    26)        14.1  Rx         0073  8  05 00 75 6A 00 80 B0 91 
    27)        14.3  Rx         006D  4  40 C0 50 6C 
    28)        14.5  Rx         00FE  8  00 93 07 FF 00 8F 00 FF 
    29)        14.7  Rx         037E  8  B5 64 5E FF FF FF 00 FF 
    30)        15.4  Rx         0005  8  00 10 00 00 09 00 30 D7 
    31)        15.7  Rx         005F  8  00 00 08 00 00 00 20 FA 
    32)        16.0  Rx         0101  8  00 00 80 00 00 00 30 63 
    33)        16.2  Rx         0176  4  03 00 30 37 
    34)        16.4  Rx         0203  8  44 54 44 53 44 58 44 5A 
    35)        16.9  Rx         03E1  8  5C FC 3F 3C 00 FF 55 55 
    36)        17.3  Rx         03ED  8  00 FE 00 07 42 C0 17 E1 
    37)        17.6  Rx         03C5  8  30 00 03 00 F0 00 00 00 
    38)        17.9  Rx         01CF  8  00 00 02 00 20 00 D0 16 
    39)        18.1  Rx         01D8  8  00 00 00 00 00 00 D0 F2 
    40)        18.3  Rx         0378  8  00 50 51 15 59 50 10 00 
    41)        19.6  Rx         00F3  8  54 FF 01 66 1E 09 C0 E2 
    42)        19.7  Rx         0069  2  0C 01 
    43)        21.6  Rx         034B  5  80 77 79 72 72 
    44)        22.8  Rx         00DD  8  0C 80 00 00 00 00 C0 24 
    45)        23.6  Rx         0073  8  05 00 75 6A 00 80 C0 C8 
    46)        23.9  Rx         0018  8  10 04 10 00 04 FF 60 8B 
    47)        24.2  Rx         0045  8  00 00 40 00 00 00 21 0F 
    48)        24.4  Rx         00DE  8  00 93 07 FF 00 73 60 B2 
    49)        24.6  Rx         006D  4  40 C0 60 26 
    50)        24.9  Rx         00FF  8  00 93 07 FF 04 00 00 FF 
    51)        25.1  Rx         014B  8  0A 29 0D E0 07 12 F0 9C 
    52)        25.3  Rx         01CD  8  29 D2 69 D2 29 D2 F0 A1 
    53)        25.5  Rx         00D5  8  00 00 40 50 00 00 40 37 
    54)        25.8  Rx         0104  8  00 00 03 00 FF 00 40 A9 
    55)        26.1  Rx         0201  8  D7 50 94 6F 00 00 00 00 
    56)        26.3  Rx         0B41  8  7F BA 78 8D 89 7D 30 80 
    57)        26.9  Rx         03D9  7  C0 17 E1 E5 07 F0 E4 
    58)        29.7  Rx         00F3  8  54 FF 01 66 1E 09 D0 2F 
    59)        30.4  Rx         02F1  8  83 40 40 00 FF 70 FF FF 
    60)        30.7  Rx         02F3  8  44 FF 00 00 01 35 00 FF 
    61)        33.6  Rx         0073  8  05 00 75 6A 00 80 D0 05 
    62)        33.9  Rx         0018  8  10 04 10 00 04 FF 70 46 
    63)        34.1  Rx         006D  4  40 C0 70 EB 
    64)        34.3  Rx         0105  8  07 DE 7F 4E 4A 8E 04 73 
    65)        34.6  Rx         00FE  8  00 93 07 FF 00 8F 00 FF 
    66)        34.8  Rx         01CD  8  29 D0 69 D0 29 D0 00 ED 
    67)        35.0  Rx         02F7  6  7F FE 00 93 FF FF 
    68)        35.6  Rx         0005  8  00 10 00 00 09 00 40 8E 
    69)        35.9  Rx         005F  8  00 00 08 00 00 00 30 37 
    70)        36.2  Rx         0101  8  00 00 80 00 00 00 40 3A 
    71)        36.4  Rx         0176  4  03 00 40 6E 
    72)        36.6  Rx         0203  8  44 53 44 52 44 57 44 57 
    73)        37.1  Rx         039F  8  0D 0B 20 07 01 0D 02 FF 
    74)        37.7  Rx         0285  8  00 00 00 00 00 00 00 00 
    75)        38.5  Rx         01CF  8  00 00 02 00 20 00 E0 5C 
    76)        38.8  Rx         017E  8  00 00 00 00 00 00 00 00 
    77)        39.0  Rx         0183  8  89 00 00 00 00 00 00 00 
    78)        39.2  Rx         01D8  8  00 00 00 00 00 00 E0 B8 
    79)        39.5  Rx         0378  8  00 50 51 15 59 50 10 00 
    80)        39.7  Rx         00F3  8  54 FF 01 66 1E 09 E0 65 
    81)        41.6  Rx         034B  5  80 77 7A 72 72 
    82)        42.8  Rx         0375  8  00 10 34 25 3F 00 00 00 
    83)        43.0  Rx         00DD  8  0C 80 00 00 00 00 D0 E9 
    84)        43.3  Rx         014B  8  0A 28 0D E1 07 12 00 38 
    85)        43.5  Rx         01CD  8  29 D0 69 D0 29 D0 10 20 
    86)        43.8  Rx         0073  8  05 00 75 6A 00 80 E0 4F 
    87)        44.0  Rx         0018  8  10 04 10 00 04 FF 80 39 
    88)        44.3  Rx         0045  8  00 00 40 00 00 00 31 C2 
    89)        44.5  Rx         00DE  8  00 93 07 FF 00 73 70 7F 
    90)        44.7  Rx         006D  4  40 C0 80 94 
    91)        45.0  Rx         00FF  8  00 93 07 FF 04 00 00 FF 
    92)        45.2  Rx         02F5  8  44 00 00 00 01 00 00 00 
    93)        45.5  Rx         00D5  8  00 00 40 50 00 00 50 FA 
    94)        45.8  Rx         0104  8  00 00 03 00 FF 00 50 64 
    95)        46.1  Rx         0201  8  E9 62 A6 81 00 00 00 00 
    96)        46.3  Rx         0B41  8  7F BA 78 8D 88 7D 40 80 
    97)        47.8  Rx         0283  8  55 05 07 03 01 68 35 5A 
    98)        49.6  Rx         00F9  8  80 02 00 5A 34 00 70 5A 
    99)        49.8  Rx         00F3  8  54 FF 01 66 1E 09 F0 A8 
   100)        50.7  Rx         02F1  8  83 40 40 00 FF 70 FF FF 
   101)        50.9  Rx         02F3  8  44 FF 00 00 01 35 00 FF 
   102)        53.7  Rx         0073  8  05 00 75 6A 00 80 F0 82 
   103)        54.0  Rx         0018  8  10 04 10 00 04 FF 90 F4 
   104)        54.2  Rx         0105  8  07 E3 7F 4E 4A 8E 14 CB 
   105)        54.4  Rx         006D  4  40 C0 90 59 
   106)        54.6  Rx         00FE  8  00 93 07 FF 00 8F 00 FF 
   107)        54.8  Rx         01CD  8  29 D1 69 D1 29 D1 20 FD 
   108)        55.1  Rx         02F7  6  7F FE 00 93 FF FF 
   109)        55.5  Rx         0005  8  00 10 00 01 09 00 50 DE 
   110)        55.7  Rx         005F  8  00 00 08 00 00 00 40 6E 
   111)        56.0  Rx         0101  8  00 00 80 00 00 00 50 F7 
   112)        56.2  Rx         0176  4  03 00 50 A3 
   113)        56.5  Rx         0203  8  44 56 44 57 44 57 44 57 
   114)        57.8  Rx         01CF  8  00 00 02 00 20 00 F0 91 
   115)        58.1  Rx         01D8  8  00 00 00 00 00 00 F0 75 
   116)        59.7  Rx         00F3  8  54 FF 01 66 1E 09 00 D7 
   117)        61.6  Rx         034B  5  80 76 79 73 73 
   118)        62.8  Rx         00DD  8  0C 80 00 00 00 00 E0 A3 
   119)        63.6  Rx         0073  8  05 00 75 6A 00 80 00 FD 
   120)        63.9  Rx         0018  8  10 04 10 00 04 FF A0 BE 
   121)        64.2  Rx         0045  8  00 00 40 00 00 00 41 9B 
   122)        64.5  Rx         00DE  8  00 93 07 FF 00 73 80 00 
   123)        64.7  Rx         006D  4  40 C0 A0 13 
   124)        65.0  Rx         00FF  8  00 93 07 FF 04 00 00 FF 
   125)        65.2  Rx         014B  8  0A 24 0D E0 07 11 10 B3 
   126)        65.4  Rx         01CD  8  29 CF 69 CF 29 CF 30 2C 
   127)        65.6  Rx         00D5  8  00 00 40 50 00 00 60 B0 
   128)        65.9  Rx         0104  8  00 00 03 00 FF 00 60 2E 
   129)        66.2  Rx         0201  8  FA 73 B8 93 00 00 00 00 
   130)        66.4  Rx         0B41  8  7F BA 78 8D 88 7E 50 80 
   131)        66.9  Rx         0F7A  8  02 D7 5A 10 29 07 F0 E4 
   132)        69.6  Rx         00F3  8  54 FF 01 66 1E 09 10 1A 
   133)        70.4  Rx         02F1  8  83 40 40 00 FF 70 FF FF 
   134)        70.7  Rx         02F3  8  44 FF 00 00 01 35 00 FF 
   135)        73.5  Rx         0105  8  07 E6 7F 4E 4A 8E 24 C2 
   136)        73.7  Rx         01CD  8  29 D0 69 D0 29 D0 40 FE 
   137)        73.9  Rx         0018  8  10 04 10 00 04 FF B0 73 
   138)        74.2  Rx         0073  8  05 00 75 6A 00 80 10 30 
   139)        74.3  Rx         006D  4  40 C0 B0 DE 
   140)        74.6  Rx         00FE  8  00 93 07 FF 00 8F 00 FF 
   141)        74.8  Rx         0205  8  82 8F 00 00 00 00 00 00 
   142)        75.0  Rx         02F7  6  7F FE 00 93 FF FF 
   143)        75.2  Rx         030D  8  80 39 8C FF FF 11 BC 81 
   144)        75.5  Rx         0005  8  00 10 00 01 09 00 60 94 
   145)        75.8  Rx         005F  8  00 00 08 00 00 00 50 A3 
   146)        76.0  Rx         0101  8  00 00 80 00 00 00 60 BD 
   147)        76.2  Rx         0176  4  03 00 60 E9 
   148)        76.5  Rx         0203  8  44 54 44 55 44 57 44 57 
   149)        76.8  Rx         0247  8  00 00 00 00 00 00 00 00 
   150)        77.4  Rx         012D  8  0F 0F 00 00 C0 17 E1 E5 
   151)        78.7  Rx         01CF  8  00 00 02 00 20 00 00 EE 
   152)        78.9  Rx         01D8  8  00 00 00 00 00 00 00 0A 
   153)        79.7  Rx         00F3  8  54 FF 01 66 1E 09 20 50 
   154)        81.6  Rx         034B  5  80 76 79 73 73 
   155)        82.8  Rx         00DD  8  0C 80 00 00 00 00 F0 6E 
   156)        83.7  Rx         0073  8  05 00 75 6A 00 80 20 7A 
   157)        83.9  Rx         0018  8  10 04 10 00 04 FF C0 2A 
   158)        84.2  Rx         014B  8  0A 22 0D E0 07 11 20 70 
   159)        84.5  Rx         0045  8  00 00 40 00 00 00 51 56 
   160)        84.7  Rx         00DE  8  00 93 07 FF 00 73 90 CD 
   161)        84.8  Rx         006D  4  40 C0 C0 87 
   162)        85.1  Rx         00FF  8  00 93 07 FF 04 00 00 FF 
   163)        85.3  Rx         01CD  8  29 D1 69 D1 29 D1 50 A4 
   164)        85.6  Rx         00D5  8  00 00 40 50 00 00 70 7D 
   165)        85.8  Rx         0349  8  01 A0 FF 42 8A 64 3F 00 
   166)        86.0  Rx         0104  8  00 00 03 00 FF 00 70 E3 
   167)        86.2  Rx         0178  4  00 04 00 00 
   168)        86.5  Rx         0201  8  0D 85 CA A4 00 00 00 00 
   169)        86.7  Rx         037D  8  00 00 00 00 00 20 4D 87 
   170)        86.9  Rx         0B41  8  7F BA 78 8D 8A 7D 60 80 
   171)        87.3  Rx         0001  8  4C C1 8F A0 AA 00 D7 AD 
   172)        88.1  Rx         03F3  8  01 90 00 C4 01 90 00 C4 
   173)        89.7  Rx         00F3  8  54 FF 01 66 1E 09 30 9D 
   174)        89.8  Rx         0015  4  42 FE B0 64 
   175)        90.6  Rx         02F1  8  83 40 40 00 FF 70 FF FF 
   176)        90.9  Rx         02F3  8  44 FF 00 00 01 35 00 FF 
   177)        93.8  Rx         0073  8  05 00 75 6A 00 80 30 B7 
   178)        94.1  Rx         0018  8  10 04 10 00 04 FF D0 E7 
   179)        94.3  Rx         0105  8  07 DF 7F 4E 4A 8E 34 7F 
   180)        94.4  Rx         006D  4  40 C0 D0 4A 
   181)        94.7  Rx         00FE  8  00 93 07 FF 00 8F 00 FF 
   182)        94.9  Rx         01CD  8  29 CF 69 CF 29 CF 60 F2 
   183)        95.1  Rx         02F7  6  7F FE 00 93 FF FF 
   184)        95.3  Rx         033D  4  00 40 00 00 
   185)        95.5  Rx         0402  8  FD 04 04 0F 10 00 00 07 
   186)        95.8  Rx         0005  8  00 10 00 01 09 00 70 59 
   187)        96.1  Rx         005F  8  00 00 08 00 00 00 60 E9 
   188)        96.3  Rx         0101  8  00 00 80 00 00 00 70 70 
   189)        96.5  Rx         0176  4  03 00 70 24 
   190)        96.8  Rx         0203  8  44 55 44 55 44 59 44 5B 
   191)        97.6  Rx         039D  8  42 7F 01 9E F0 08 00 C7 
   192)        97.9  Rx         01CF  8  00 00 02 00 20 00 10 23 
   193)        98.2  Rx         01D8  8  00 00 00 00 00 00 10 C7 
   194)        98.4  Rx         03ED  8  00 FE 00 07 42 C0 17 E1 
   195)       100.0  Rx         00F3  8  54 FF 01 65 1E 09 40 7E 
   196)       101.7  Rx         034B  5  80 77 79 73 73 
   197)       102.8  Rx         00DD  8  0C 80 00 00 00 00 00 11 
   198)       103.5  Rx         014B  8  0A 1F 0D E0 07 11 30 C8 
   199)       103.7  Rx         0073  8  05 00 75 6A 00 80 40 EE 
   200)       104.0  Rx         0018  8  10 04 10 00 04 FF E0 AD 
   201)       104.3  Rx         01CD  8  29 CF 69 CF 29 CF 70 3F 
   202)       104.5  Rx         0045  8  00 00 40 00 00 00 61 1C 
   203)       104.7  Rx         00DE  8  00 93 07 FF 00 73 A0 87 
   204)       104.9  Rx         006D  4  40 C0 E0 00 
   205)       105.1  Rx         00FF  8  00 93 07 FF 04 00 00 FF 
   206)       105.5  Rx         00D5  8  00 00 40 50 00 00 80 02 
   207)       105.8  Rx         0104  8  00 00 03 00 FF 00 80 9C 
   208)       106.0  Rx         0201  8  1F 97 DB B6 00 00 00 00 
   209)       106.3  Rx         0B41  8  7F A8 78 8D 86 7D 70 80 
   210)       109.6  Rx         03D4  8  00 00 00 00 00 00 00 00 
   211)       109.8  Rx         00F3  8  54 FF 01 66 1E 09 50 09 
   212)       110.5  Rx         02F1  8  83 40 40 00 FF 70 FF FF 
   213)       110.8  Rx         02F3  8  44 FF 00 00 01 35 00 FF 
   214)       113.6  Rx         0073  8  05 00 75 6A 00 80 50 23 
   215)       113.9  Rx         0018  8  10 04 10 00 04 FF F0 60 
   216)       114.1  Rx         0105  8  07 E4 7F 4E 4A 8E 44 DA 
   217)       114.3  Rx         006D  4  40 C0 F0 CD 
   218)       114.5  Rx         01CD  8  29 CF 69 CF 29 CF 80 40 
   219)       114.7  Rx         00FE  8  00 93 07 FF 00 8F 00 FF 
   220)       115.0  Rx         02F7  6  7F FE 00 93 FF FF 
   221)       115.2  Rx         037E  8  B5 64 5E FF FF FF 00 FF 
   222)       115.5  Rx         0005  8  00 10 00 00 09 00 80 BB 
   223)       115.8  Rx         005F  8  00 00 08 00 00 00 70 24 
   224)       116.0  Rx         0101  8  00 00 80 00 00 00 80 0F 
   225)       116.2  Rx         0176  4  03 00 80 5B 
   226)       116.5  Rx         0203  8  44 56 44 54 44 5B 44 5F 
   227)       118.6  Rx         01CF  8  00 00 02 00 20 00 20 69 
   228)       118.9  Rx         01D8  8  00 00 00 00 00 00 20 8D 
   229)       119.5  Rx         0069  2  0C 01 
   230)       119.8  Rx         00F3  8  54 FF 01 66 1E 09 60 43 
   231)       121.6  Rx         034B  5  80 78 79 74 74 
   232)       122.8  Rx         00DD  8  0C 80 00 00 00 00 10 DC 
   233)       123.1  Rx         03C5  8  30 00 03 00 F0 00 00 00 
   234)       123.7  Rx         0073  8  05 00 75 6A 00 80 60 69 
   235)       124.0  Rx         0018  8  10 04 10 00 04 FF 00 1F 
   236)       124.2  Rx         014B  8  0A 18 0D E0 07 11 40 5E 
   237)       124.4  Rx         0045  8  00 00 40 00 00 00 71 D1 
   238)       124.6  Rx         01CD  8  29 CE 69 CE 29 CE 90 1A 
   239)       124.8  Rx         006D  4  40 C0 00 B2 
   240)       125.1  Rx         00DE  8  00 93 07 FF 00 73 B0 4A 
   241)       125.3  Rx         00FF  8  00 93 07 FF 04 00 00 FF 
   242)       125.5  Rx         00D5  8  00 00 40 50 00 00 90 CF 
   243)       125.8  Rx         0104  8  00 00 03 00 FF 00 90 51 
   244)       126.1  Rx         0201  8  31 A9 ED C8 00 00 00 00 
   245)       126.3  Rx         0B41  8  7F BA 78 8D 87 7D 80 80 
   246)       129.8  Rx         00F3  8  54 FF 01 66 1E 09 70 8E 
   247)       130.6  Rx         02F1  8  83 40 40 00 FF 70 FF FF 
   248)       130.9  Rx         02F3  8  44 FF 00 00 01 35 00 FF 
   249)       133.5  Rx         0105  8  07 E9 7F 4E 4A 8E 54 5E 
   250)       133.7  Rx         0073  8  05 00 75 6A 00 80 70 A4 
   251)       134.0  Rx         0018  8  10 04 10 00 04 FF 10 D2 
   252)       134.2  Rx         01CD  8  29 CF 69 CF 29 CF A0 C7 
   253)       134.4  Rx         006D  4  40 C0 10 7F 
   254)       134.6  Rx         02F7  6  7F FE 00 93 FF FF 
   255)       134.8  Rx         00FE  8  00 93 07 FF 00 8F 00 FF 
   256)       135.6  Rx         0005  8  00 10 00 00 09 00 90 76 
   257)       135.8  Rx         005F  8  00 00 08 00 00 00 80 5B 
   258)       136.1  Rx         0101  8  00 00 80 00 00 00 90 C2 
   259)       136.3  Rx         0176  4  03 00 90 96 
   260)       136.6  Rx         0203  8  44 55 44 56 44 57 44 5A 
   261)       137.9  Rx         01CF  8  00 00 02 00 20 00 30 A4 
   262)       138.1  Rx         01D8  8  00 00 00 00 00 00 30 40 
   263)       139.8  Rx         00F3  8  54 FF 01 65 1E 09 80 4B 
   264)       141.6  Rx         034B  5  80 79 79 74 74 
   265)       142.8  Rx         0375  8  00 10 34 25 3F 00 00 00 
   266)       143.0  Rx         00DD  8  0C 80 00 00 00 00 20 96 
   267)       143.4  Rx         0285  8  00 00 00 00 00 00 00 00 
   268)       143.8  Rx         0073  8  05 00 75 6A 00 80 80 DB 
   269)       144.1  Rx         0018  8  10 04 10 00 04 FF 20 98 
   270)       144.4  Rx         0045  8  00 00 40 00 00 00 81 AE 
   271)       144.6  Rx         014B  8  0A 13 0D E0 07 11 50 53 
   272)       144.8  Rx         006D  4  40 C0 20 35 
   273)       145.0  Rx         00DE  8  00 93 07 FF 00 73 C0 13 
   274)       145.3  Rx         00FF  8  00 93 07 FF 04 00 00 FF 
   275)       145.5  Rx         01CD  8  29 D0 69 D0 29 D0 B0 81 
   276)       145.7  Rx         00D5  8  00 00 40 50 00 00 A0 85 
   277)       146.0  Rx         0104  8  00 00 03 00 FF 00 A0 1B 
   278)       146.2  Rx         0201  8  43 BA 00 DA 00 00 00 00 
   279)       146.5  Rx         0B41  8  7F BA 78 8D 88 7D 90 80 
   280)       148.6  Rx         00F9  8  80 02 00 5A 34 00 80 25 
   281)       149.8  Rx         00F3  8  54 FF 01 65 1D 09 90 0A 
   282)       150.6  Rx         02F1  8  83 40 40 00 FF 70 FF FF 
   283)       150.9  Rx         02F3  8  44 FF 00 00 01 35 00 FF 
   284)       151.6  Rx         0379  2  00 00 
   285)       152.9  Rx         03F4  8  C0 07 00 E5 44 45 09 00 
   286)       153.2  Rx         0283  8  55 05 07 03 01 68 35 5A 
   287)       153.7  Rx         0073  8  05 00 75 6A 00 80 90 16 
   288)       153.9  Rx         0018  8  10 04 10 00 04 FF 30 55 
   289)       154.2  Rx         0105  8  07 E1 7F 4E 4A 8E 64 1E 
   290)       154.3  Rx         006D  4  40 C0 30 F8 
   291)       154.6  Rx         01CD  8  29 CE 69 CE 29 CE C0 C4 
   292)       154.8  Rx         00FE  8  00 93 07 FF 00 8F 00 FF 
   293)       155.0  Rx         02F7  6  7F FE 00 93 FF FF 
   294)       155.4  Rx         0005  8  00 10 00 00 09 00 A0 3C 
   295)       155.7  Rx         005F  8  00 00 08 00 00 00 90 96 
   296)       155.9  Rx         0101  8  00 00 80 00 00 00 A0 88 
   297)       156.2  Rx         0176  4  03 00 A0 DC 
   298)       156.5  Rx         0203  8  44 56 44 55 44 58 44 5A 
   299)       158.5  Rx         01CF  8  00 00 02 00 20 00 40 FD 
   300)       158.8  Rx         01D8  8  00 00 00 00 00 00 40 19 
   301)       159.8  Rx         00F3  8  54 FF 01 66 1D 09 A0 FA 
   302)       161.6  Rx         034B  5  80 79 79 74 74 
   303)       162.8  Rx         00DD  8  0C 80 00 00 00 00 30 5B 
   304)       163.7  Rx         014B  8  0A 0F 0D E0 07 11 60 02 
   305)       164.0  Rx         0018  8  10 04 10 00 04 FF 40 0C 
   306)       164.2  Rx         0073  8  05 00 75 6A 00 80 A0 5C 
   307)       164.4  Rx         0045  8  00 00 40 00 00 00 91 63 
   308)       164.7  Rx         01CD  8  29 CF 69 CF 29 CF D0 9E 
   309)       164.8  Rx         006D  4  40 C0 40 A1 
   310)       165.1  Rx         00DE  8  00 93 07 FF 00 73 D0 DE 
   311)       165.3  Rx         00FF  8  00 93 07 FF 04 00 00 FF 
   312)       165.5  Rx         00D5  8  00 00 40 50 00 00 B0 48 
   313)       165.8  Rx         0104  8  00 00 03 00 FF 00 B0 D6 
   314)       166.0  Rx         0178  4  00 04 00 00 
   315)       166.2  Rx         0201  8  54 CC 12 EC 00 00 00 00 
   316)       166.4  Rx         0B41  8  7F BA 78 8D 87 7E A0 80 
   317)       167.0  Rx         0F7A  8  02 D8 5A 10 29 07 F0 E4 
   318)       167.3  Rx         03F3  8  01 90 00 C4 01 90 00 C4 
   319)       169.8  Rx         00F3  8  54 FF 01 65 1D 09 B0 8D 
   320)       170.6  Rx         02F1  8  83 40 40 00 FF 70 FF FF 
   321)       170.9  Rx         02F3  8  44 FF 00 00 01 35 00 FF 
   322)       173.8  Rx         0073  8  05 00 75 6A 00 80 B0 91 
   323)       174.0  Rx         0018  8  10 04 10 00 04 FF 50 C1 
   324)       174.2  Rx         006D  4  40 C0 50 6C 
   325)       174.5  Rx         0105  8  07 E3 7F 4E 4A 8E 74 5F 
   326)       174.7  Rx         01CD  8  29 D0 69 D0 29 D0 E0 5F 
   327)       174.9  Rx         00FE  8  00 93 07 FF 00 8F 00 FF 
   328)       175.2  Rx         0205  8  82 8F 00 00 00 00 00 00 
   329)       175.4  Rx         02F7  6  7F FE 00 93 FF FF 
   330)       175.6  Rx         0005  8  00 10 00 01 09 00 B0 6C 
   331)       175.8  Rx         030D  8  80 39 8C FF FF 10 90 81 
   332)       176.1  Rx         005F  8  00 00 07 F6 00 00 A0 07 
   333)       176.3  Rx         0101  8  00 00 80 00 00 00 B0 45 
   334)       176.6  Rx         0176  4  03 00 B0 11 
   335)       176.9  Rx         0203  8  44 57 44 58 44 5B 44 5A 
   336)       177.2  Rx         03ED  8  00 FE 00 07 42 C0 17 E1 
   337)       177.4  Rx         0247  8  00 00 00 00 00 00 00 00 
   338)       177.6  Rx         012D  8  0F 0F 00 00 C0 17 E1 E5 
   339)       177.9  Rx         0592  8  05 61 07 80 40 00 00 00 
   340)       178.1  Rx         01CF  8  00 00 02 00 20 00 50 30 
   341)       178.3  Rx         01D8  8  00 00 00 00 00 00 50 D4 
   342)       179.8  Rx         00F3  8  54 FF 01 65 1D 09 C0 D4 
   343)       181.6  Rx         034B  5  80 78 79 74 74 
   344)       182.9  Rx         00DD  8  0C 80 00 00 00 00 40 02 
   345)       183.8  Rx         0073  8  05 00 75 6A 00 80 C0 C8 
   346)       184.0  Rx         0018  8  10 04 10 00 04 FF 60 8B 
   347)       184.3  Rx         014B  8  0A 0C 0D E0 07 11 70 05 
   348)       184.5  Rx         0045  8  00 00 40 00 00 00 A1 29 
   349)       184.7  Rx         01CD  8  29 CE 69 CE 29 CE F0 8E 
   350)       185.0  Rx         006D  4  40 C0 60 26 
   351)       185.2  Rx         00DE  8  00 93 07 FF 00 73 E0 94 
   352)       185.4  Rx         00FF  8  00 93 07 FF 04 00 00 FF 
   353)       185.6  Rx         00D5  8  00 00 40 50 00 00 C0 11 
   354)       185.9  Rx         0349  8  01 A0 FF 42 8A 64 3F 00 
   355)       186.1  Rx         0104  8  00 00 03 00 FF 00 C0 8F 
   356)       186.4  Rx         0404  8  FD 06 04 0F 10 00 00 07 
   357)       186.6  Rx         0201  8  66 DE 24 FE 00 00 00 00 
   358)       186.9  Rx         0B41  8  7F BA 78 8D 87 7E B0 80 
   359)       187.4  Rx         0001  8  4C C1 8F A0 AA 00 E7 E7 
   360)       189.8  Rx         00F3  8  54 FF 01 66 1D 09 D0 A3 
   361)       190.6  Rx         02F1  8  83 40 40 00 FF 70 FF FF 
   362)       190.9  Rx         02F3  8  44 FF 00 00 01 35 00 FF 
   363)       193.7  Rx         0105  8  07 E8 7F 4E 4A 8E 84 E0 
   364)       193.9  Rx         0018  8  10 04 10 00 04 FF 70 46 
   365)       194.1  Rx         0073  8  05 00 75 6A 00 80 D0 05 
   366)       194.3  Rx         006D  4  40 C0 70 EB 
   367)       194.6  Rx         01CD  8  29 CF 69 CF 29 CF 00 66 
   368)       194.7  Rx         02F7  6  7F FE 00 93 FF FF 
   369)       195.0  Rx         00FE  8  00 93 07 FF 00 8F 00 FF 
   370)       195.2  Rx         033D  4  00 40 00 00 
   371)       195.6  Rx         0005  8  00 10 00 00 09 00 C0 A8 
   372)       195.9  Rx         005F  8  00 00 08 03 00 00 B0 AB 
   373)       196.1  Rx         0101  8  00 00 80 00 00 00 C0 1C 
   374)       196.4  Rx         0176  4  03 00 C0 48 
   375)       196.7  Rx         0203  8  44 57 44 58 44 5B 44 5A 
   376)       198.0  Rx         039D  8  42 7F 01 9E F0 08 00 4F 
   377)       198.5  Rx         01CF  8  00 00 02 00 20 00 60 7A 
   378)       198.7  Rx         01D8  8  00 00 00 00 00 00 60 9E 
   379)       199.9  Rx         00F3  8  54 FF 01 66 1D 09 E0 E9 
   380)       201.7  Rx         034B  5  80 79 79 75 75 
   381)       203.0  Rx         00DD  8  0C 80 00 00 00 00 50 CF 
   382)       203.7  Rx         0018  8  10 04 10 00 04 FF 80 39 
   383)       204.0  Rx         0073  8  05 00 75 6A 00 80 E0 4F 
   384)       204.2  Rx         0045  8  00 00 40 00 00 00 B1 E4 
   385)       204.5  Rx         014B  8  0A 07 0D E0 07 11 80 BA 
   386)       204.6  Rx         006D  4  40 C0 80 94 
   387)       204.8  Rx         01CD  8  29 D0 69 D0 29 D0 10 20 
   388)       205.1  Rx         00DE  8  00 93 07 FF 00 73 F0 59 
   389)       205.4  Rx         00FF  8  00 93 07 FF 04 00 00 FF 
   390)       205.6  Rx         00D5  8  00 00 40 50 00 00 D0 DC 
   391)       205.7  Rx         0202  4  02 00 00 F2 
   392)       206.0  Rx         0104  8  00 00 03 00 FF 00 D0 42 
   393)       206.3  Rx         0201  8  78 F0 36 10 00 00 00 00 
   394)       206.5  Rx         0B41  8  7F BA 78 8D 85 7E C0 80 
   395)       209.7  Rx         03D4  8  00 00 00 00 00 00 00 00 
   396)       209.9  Rx         00F3  8  54 FF 01 65 1D 09 F0 9E 
   397)       210.6  Rx         02F1  8  83 40 40 00 FF 70 FF FF 
   398)       210.9  Rx         02F3  8  44 FF 00 00 01 35 00 FF 
   399)       213.7  Rx         0073  8  05 00 75 6A 00 80 F0 82 
   400)       214.0  Rx         0018  8  10 04 10 00 04 FF 90 F4 
   401)       214.2  Rx         0105  8  07 DF 7F 4E 4A 8E 94 DE 
   402)       214.4  Rx         006D  4  40 C0 90 59 
   403)       214.6  Rx         01CD  8  29 D8 69 D8 29 D8 20 A6 
   404)       214.8  Rx         02F7  6  7F FE 00 93 FF FF 
   405)       215.0  Rx         00FE  8  00 93 07 FF 00 8F 00 FF 
   406)       215.3  Rx         037E  8  B5 64 5E FF FF FF 00 FF 
   407)       215.5  Rx         0005  8  00 10 00 01 09 00 D0 F8 
   408)       215.8  Rx         005F  8  00 00 08 00 00 00 C0 48 
   409)       216.0  Rx         0101  8  00 00 80 00 00 00 D0 D1 
   410)       216.2  Rx         0176  4  03 00 D0 85 
   411)       216.5  Rx         0203  8  44 58 44 57 44 56 44 5B 
   412)       217.9  Rx         01CF  8  00 00 02 00 20 00 70 B7 
   413)       218.1  Rx         01D8  8  00 00 00 00 00 00 70 53 
   414)       219.0  Rx         0069  2  0C 01 
   415)       219.9  Rx         00F3  8  54 FF 01 66 1D 09 00 5B 
   416)       221.6  Rx         034B  5  80 79 78 75 75 
   417)       222.8  Rx         00DD  8  0C 80 00 00 00 00 60 85 
   418)       223.3  Rx         0375  8  00 50 34 25 3F 00 00 00 
   419)       223.7  Rx         0018  8  10 04 10 00 04 FF A0 BE 
   420)       223.9  Rx         0073  8  05 00 75 6A 00 80 00 FD 
   421)       224.1  Rx         0045  8  00 00 40 00 00 00 C1 BD 
   422)       224.4  Rx         006D  4  40 C0 A0 13 
   423)       224.7  Rx         014B  8  0A 05 0D E0 07 11 90 FB 
   424)       225.0  Rx         00DE  8  00 93 07 FF 00 73 00 26 
   425)       225.2  Rx         00FF  8  00 93 07 FF 04 00 00 FF 
   426)       225.4  Rx         00D5  8  00 00 40 50 00 00 E0 96 
   427)       225.7  Rx         01CD  8  29 D9 69 D9 29 D9 30 FC 
   428)       225.9  Rx         0104  8  00 00 03 00 FF 00 E0 08 
   429)       226.2  Rx         0201  8  8A 02 47 22 00 00 00 00 
   430)       226.4  Rx         0B41  8  7F BA 78 8D 87 7E D0 80 
   431)       227.8  Rx         03C5  8  30 00 03 00 F0 00 00 00 
   432)       229.8  Rx         00F3  8  54 FF 01 66 1D 09 10 96 
   433)       230.6  Rx         02F1  8  83 40 40 00 FF 70 FF FF 
   434)       230.9  Rx         02F3  8  44 FF 00 00 01 35 00 FF 
   435)       233.7  Rx         0073  8  05 00 75 6A 00 80 10 30 
   436)       234.0  Rx         0018  8  10 04 10 00 04 FF B0 73 
   437)       234.2  Rx         006D  4  40 C0 B0 DE 
   438)       234.5  Rx         0105  8  07 E4 7F 4F 4B 8E A4 7A 
   439)       234.7  Rx         01CD  8  29 D9 69 D9 29 D9 40 A5 
   440)       234.9  Rx         02F7  6  7F FE 00 93 FF FF 
   441)       235.1  Rx         00FE  8  00 93 07 FF 00 8F 00 FF 
   442)       235.6  Rx         0005  8  00 10 00 00 09 00 E0 2F 
   443)       235.8  Rx         005F  8  00 00 08 00 00 00 D0 85 
   444)       236.1  Rx         0101  8  00 00 80 00 00 00 E0 9B 
   445)       236.3  Rx         0176  4  03 00 E0 CF 
   446)       236.6  Rx         0203  8  44 58 44 59 44 59 44 5D 
   447)       238.4  Rx         01CF  8  00 00 02 00 20 00 80 C8 
   448)       238.7  Rx         017E  8  00 00 00 00 00 00 00 00 
   449)       238.9  Rx         0183  8  89 00 00 00 00 00 00 00 
   450)       239.2  Rx         01D8  8  00 00 00 00 00 00 80 2C 
   451)       239.4  Rx         0378  8  00 50 51 15 59 50 10 00 
   452)       239.8  Rx         00F3  8  54 FF 01 66 1D 09 20 DC 
   453)       241.6  Rx         034B  5  80 79 78 75 75 
   454)       242.8  Rx         0375  8  00 50 34 25 3F 00 00 00 
   455)       243.0  Rx         00DD  8  0C 80 00 00 00 00 70 48 
   456)       243.8  Rx         0018  8  10 04 10 00 04 FF C0 2A 
   457)       244.1  Rx         0073  8  05 00 75 6A 00 80 20 7A 
   458)       244.3  Rx         0045  8  00 00 40 00 00 00 D1 70 
   459)       244.5  Rx         014B  8  0A 04 0D E0 07 11 A0 F7 
   460)       244.7  Rx         006D  4  40 C0 C0 87 
   461)       244.9  Rx         01CD  8  29 D8 69 D8 29 D8 50 FF 
   462)       245.2  Rx         00DE  8  00 93 07 FF 00 73 10 EB 
   463)       245.4  Rx         00FF  8  00 93 07 FF 04 00 00 FF 
   464)       245.7  Rx         00D5  8  00 00 40 50 00 00 F0 5B 
   465)       245.9  Rx         02F5  8  44 00 00 00 01 00 00 00 
   466)       246.1  Rx         0104  8  00 00 03 00 FF 00 F0 C5 
   467)       246.3  Rx         0178  4  00 04 00 00 
   468)       246.6  Rx         0201  8  9B 14 59 34 00 00 00 00 
   469)       246.9  Rx         0B41  8  7F BA 78 8D 87 7E E0 80 
   470)       247.3  Rx         03F3  8  01 90 00 C4 01 90 00 C4 
   471)       248.6  Rx         00F9  8  80 02 00 5A 34 00 90 E8 
   472)       249.0  Rx         0285  8  00 00 00 00 00 00 00 00 
   473)       249.8  Rx         00F3  8  54 FF 01 66 1D 09 30 11 
   474)       250.6  Rx         02F1  8  83 40 40 00 FF 70 FF FF 
   475)       250.9  Rx         02F3  8  44 FF 00 00 01 35 00 FF 
   476)       253.7  Rx         0073  8  05 00 75 6A 00 80 30 B7 
   477)       254.0  Rx         0018  8  10 04 10 00 04 FF D0 E7 
   478)       254.2  Rx         006D  4  40 C0 D0 4A 
   479)       254.5  Rx         0105  8  07 E7 7F 4F 4B 8E B4 7D 
   480)       254.7  Rx         01CD  8  29 D7 69 D7 29 D7 60 BB 
   481)       254.9  Rx         02F7  6  7F FE 00 93 FF FF 
   482)       255.1  Rx         00FE  8  00 93 07 FF 00 8F 00 FF 
   483)       255.5  Rx         0005  8  00 10 00 00 09 00 F0 E2 
   484)       255.7  Rx         005F  8  00 00 08 0B 00 00 E0 E9 
   485)       256.0  Rx         0101  8  00 00 80 00 00 00 F0 56 
   486)       256.2  Rx         0176  4  03 00 F0 02 
   487)       256.5  Rx         0203  8  44 59 44 58 44 5C 44 5D 
   488)       257.8  Rx         01CF  8  00 00 02 00 20 00 90 05 
   489)       258.1  Rx         01D8  8  00 00 00 00 00 00 90 E1 
   490)       258.7  Rx         03ED  8  00 FE 00 07 42 C0 17 E1 
   491)       259.0  Rx         0283  8  55 05 07 03 01 68 35 5A 
   492)       260.0  Rx         00F3  8  54 FF 01 66 1D 09 40 48 
   493)       261.6  Rx         034B  5  80 78 78 76 76 
   494)       262.8  Rx         00DD  8  0C 80 00 00 00 00 80 37 
   495)       263.8  Rx         0073  8  05 00 75 6A 00 80 40 EE 
   496)       264.1  Rx         0018  8  10 04 10 00 04 FF E0 AD 
   497)       264.4  Rx         0045  8  00 00 40 00 00 00 E1 3A 
   498)       264.7  Rx         006D  4  40 C0 E0 00 
   499)       264.9  Rx         014B  8  0A 00 0D E0 07 11 B0 3F 
   500)       265.1  Rx         01CD  8  29 D8 69 D8 29 D8 70 78 
   501)       265.4  Rx         00DE  8  00 93 07 FF 00 73 20 A1 
   502)       265.6  Rx         00D5  8  00 00 40 50 00 00 00 24 
   503)       265.9  Rx         00FF  8  00 93 07 FF 04 00 00 FF 
   504)       266.1  Rx         0104  8  00 00 03 00 FF 00 00 BA 
   505)       266.4  Rx         0201  8  AD 26 6B 46 00 00 00 00 
   506)       266.6  Rx         0B41  8  7F BA 78 8D 86 7E F0 80 
   507)       267.2  Rx         0F7A  8  02 D9 5A 10 29 07 F0 E4 
   508)       269.8  Rx         00F3  8  54 FF 01 66 1D 09 50 85 
   509)       270.6  Rx         02F1  8  83 40 40 00 FF 70 FF FF 
   510)       270.9  Rx         02F3  8  44 FF 00 00 01 35 00 FF 
   511)       273.8  Rx         0073  8  05 00 75 6A 00 80 50 23 
   512)       274.1  Rx         0018  8  10 04 10 00 04 FF F0 60 
   513)       274.3  Rx         0105  8  07 E6 7F 4F 4B 8E C4 62 
   514)       274.5  Rx         006D  4  40 C0 F0 CD 
   515)       274.7  Rx         01CD  8  29 D7 69 D7 29 D7 80 09 
   516)       274.9  Rx         02F7  6  7F FE 00 93 FF FF 
   517)       275.2  Rx         030D  8  80 39 8C FF FF 11 23 81 
   518)       275.4  Rx         00FE  8  00 93 07 FF 00 8F 00 FF 
   519)       275.6  Rx         0005  8  00 10 00 01 09 00 00 00 
   520)       275.9  Rx         0205  8  82 8F 00 00 00 00 00 00 
   521)       276.1  Rx         005F  8  00 00 07 FE 00 00 F0 45 
   522)       276.4  Rx         0101  8  00 00 80 00 00 00 00 29 
   523)       276.6  Rx         0176  4  03 00 00 7D 
   524)       276.9  Rx         0203  8  44 59 44 58 44 5E 44 5C 
   525)       277.1  Rx         0247  8  00 00 00 00 00 00 00 00 
   526)       277.4  Rx         012D  8  0F 0F 00 00 C0 17 E1 E5 
   527)       278.4  Rx         01CF  8  00 00 02 00 20 00 A0 4F 
   528)       278.7  Rx         01D8  8  00 00 00 00 00 00 A0 AB 
   529)       279.8  Rx         00F3  8  54 FF 01 66 1D 09 60 CF 
   530)       281.6  Rx         034B  5  80 77 78 77 77 
   531)       282.8  Rx         00DD  8  0C 80 00 00 00 00 90 FA 
   532)       283.9  Rx         0073  8  05 00 75 6A 00 80 60 69 
   533)       284.1  Rx         0018  8  10 04 10 00 04 FF 00 1F 
   534)       284.4  Rx         0045  8  00 00 40 00 00 00 F1 F7 
   535)       284.6  Rx         014B  8  0A 00 0D E0 07 10 C0 2A 
   536)       284.8  Rx         006D  4  40 C0 00 B2 
   537)       285.1  Rx         01CD  8  29 D8 69 D8 29 D8 90 CA 
   538)       285.3  Rx         0349  8  01 A0 FF 42 8A 64 3F 00 
   539)       285.5  Rx         00D5  8  00 00 40 50 00 00 10 E9 
   540)       285.7  Rx         00DE  8  00 93 07 FF 00 73 30 6C 
   541)       286.0  Rx         00FF  8  00 93 07 FF 04 00 00 FF 
   542)       286.2  Rx         0104  8  00 00 03 00 FF 00 10 77 
   543)       286.5  Rx         037D  8  00 00 00 00 00 20 4D 87 
   544)       286.7  Rx         0201  8  BF 38 7D 58 00 00 00 00 
   545)       287.0  Rx         0B41  8  7F BA 78 8D 87 7F 00 80 
   546)       287.3  Rx         0001  8  4C C1 8F A0 AA 00 F7 2A 
   547)       289.6  Rx         0015  4  42 FE B0 64 
   548)       289.9  Rx         00F3  8  54 FF 01 66 1D 09 70 02 
   549)       290.8  Rx         02F1  8  83 40 40 00 FF 70 FF FF 
   550)       291.1  Rx         02F3  8  44 FF 00 00 01 35 00 FF 
   551)       293.9  Rx         0018  8  10 04 10 00 04 FF 10 D2 
   552)       294.1  Rx         0073  8  05 00 75 6A 00 80 70 A4 
   553)       294.3  Rx         006D  4  40 C0 10 7F 
   554)       294.5  Rx         0105  8  07 E8 7F 4F 4B 8E D4 2C 
   555)       294.8  Rx         01CD  8  29 D8 69 D8 29 D8 A0 80 
   556)       294.9  Rx         02F7  6  7F FE 00 93 FF FF 
   557)       295.2  Rx         033D  4  00 40 00 00 
   558)       295.4  Rx         00FE  8  00 93 07 FF 00 8F 00 FF 
   559)       295.6  Rx         0005  8  00 10 00 01 09 00 10 CD 
   560)       295.9  Rx         005F  8  00 00 08 00 00 00 00 7D 
   561)       296.1  Rx         0101  8  00 00 80 00 00 00 10 E4 
   562)       296.4  Rx         0176  4  03 00 10 B0 
   563)       296.6  Rx         0203  8  44 5B 44 5A 44 60 44 5B 
   564)       296.9  Rx         0406  8  FD 07 04 0F 04 00 00 07 
   565)       297.1  Rx         039D  8  42 7F 01 9E F0 08 00 57 
   566)       297.9  Rx         01CF  8  00 00 02 00 20 00 B0 82 
   567)       298.1  Rx         01D8  8  00 00 00 00 00 00 B0 66 
   568)       299.9  Rx         00F3  8  54 FF 01 66 1D 09 80 7D 
   569)       301.6  Rx         034B  5  80 76 77 78 78 
   570)       302.9  Rx         00DD  8  0C 80 00 00 00 00 A0 B0 
   571)       303.2  Rx         0207  8  00 00 1B 20 02 DB 3F 8C 
   572)       303.9  Rx         0018  8  10 04 10 00 04 FF 20 98 
   573)       304.1  Rx         0073  8  05 00 75 6A 00 80 80 DB 
   574)       304.4  Rx         0045  8  00 00 40 00 00 00 01 88 
   575)       304.6  Rx         014B  8  09 FF 0D E0 07 10 D0 09 
   576)       304.8  Rx         006D  4  40 C0 20 35 
   577)       305.0  Rx         01CD  8  29 D7 69 D7 29 D7 B0 43 
   578)       305.3  Rx         00DE  8  00 93 07 FF 00 73 40 35 
   579)       305.6  Rx         00D5  8  00 00 40 50 00 00 20 A3 
   580)       305.8  Rx         00FF  8  00 93 07 FF 04 00 00 FF 
   581)       306.0  Rx         0104  8  00 00 03 00 FF 00 20 3D 
   582)       306.3  Rx         0201  8  D1 4A 8F 6A 00 00 00 00 
   583)       306.6  Rx         0B41  8  7F A8 78 8D 85 7F 10 80 
   584)       309.7  Rx         03D4  8  00 00 00 00 00 00 00 00 
   585)       310.0  Rx         00F3  8  54 FF 01 66 1D 09 90 B0 
   586)       310.8  Rx         02F1  8  83 40 40 00 FF 70 FF FF 
   587)       311.1  Rx         02F3  8  44 FF 00 00 01 35 00 FF 
   588)       312.7  Rx         0206  8  00 00 3D 8E 0C 01 FA A6 
   589)       313.8  Rx         0073  8  05 00 75 6A 00 80 90 16 
   590)       314.1  Rx         0018  8  10 04 10 00 04 FF 30 55 
   591)       314.2  Rx         006D  4  40 C0 30 F8 
   592)       314.6  Rx         0105  8  07 EB 7F 4F 4B 8E E4 AC 
   593)       314.9  Rx         01CD  8  29 D7 69 D7 29 D7 C0 1A 
   594)       315.0  Rx         02F7  6  7F FE 00 93 FF FF 
   595)       315.3  Rx         00FE  8  00 93 07 FF 00 8F 00 FF 
   596)       315.6  Rx         0005  8  00 10 00 01 09 00 20 87 
   597)       315.8  Rx         037E  8  B5 64 5E FF FF FF 00 FF 
   598)       316.0  Rx         005F  8  00 00 08 00 00 00 10 B0 
   599)       316.3  Rx         0101  8  00 00 80 00 00 00 20 AE 
   600)       316.6  Rx         0176  4  03 00 20 FA 
   601)       316.9  Rx         0203  8  44 5A 44 5A 44 5B 44 5A 
   602)       318.4  Rx         01CF  8  00 00 02 00 20 00 C0 DB 
   603)       318.7  Rx         01D8  8  00 00 00 00 00 00 C0 3F 
   604)       319.5  Rx         0069  2  0C 01 
   605)       319.8  Rx         00F3  8  54 FF 01 66 1D 09 A0 FA 
   606)       321.6  Rx         034B  5  80 75 77 78 78 
   607)       322.9  Rx         00DD  8  0C 80 00 00 00 00 B0 7D 
   608)       323.1  Rx         0375  8  00 10 34 25 3F 00 00 00 
   609)       323.8  Rx         0018  8  10 04 10 00 04 FF 40 0C 
   610)       324.0  Rx         0073  8  05 00 75 6A 00 80 A0 5C 
   611)       324.3  Rx         0045  8  00 00 40 00 00 00 11 45 
   612)       324.5  Rx         014B  8  09 FD 0D E0 07 10 E0 CF 
   613)       324.7  Rx         006D  4  40 C0 40 A1 
   614)       324.9  Rx         01CD  8  29 D8 69 D8 29 D8 D0 D9 
   615)       325.4  Rx         00DE  8  00 93 07 FF 00 73 50 F8 
   616)       325.6  Rx         00D5  8  00 00 40 50 00 00 30 6E 
   617)       325.8  Rx         00FF  8  00 93 07 FF 04 00 00 FF 
   618)       326.1  Rx         0104  8  00 00 03 00 FF 00 30 F0 
   619)       326.3  Rx         0178  4  00 04 00 00 
   620)       326.6  Rx         0201  8  E3 5C A1 7C 00 00 00 00 
   621)       326.8  Rx         0B41  8  7F A8 78 8D 86 7F 20 80 
   622)       327.0  Rx         03F3  8  01 90 00 C4 01 90 00 C4 
   623)       329.8  Rx         00F3  8  54 FF 01 65 1D 09 B0 8D 
   624)       330.6  Rx         02F1  8  83 40 40 00 FF 70 FF FF 
   625)       330.9  Rx         02F3  8  44 FF 00 00 01 35 00 FF 
   626)       332.9  Rx         03C5  8  30 00 03 00 F0 00 00 00 
   627)       333.8  Rx         0073  8  05 00 75 6A 00 80 B0 91 
   628)       334.0  Rx         0018  8  10 04 10 00 04 FF 50 C1 
   629)       334.2  Rx         0105  8  07 E7 7F 4F 4B 8E F4 6E 
   630)       334.4  Rx         006D  4  40 C0 50 6C 
   631)       334.6  Rx         01CD  8  29 D6 69 D6 29 D6 E0 0A 
   632)       334.8  Rx         02F7  6  7F FE 00 93 FF FF 
   633)       335.4  Rx         00FE  8  00 93 07 FF 00 8F 00 FF 
   634)       335.6  Rx         0005  8  00 10 00 01 09 00 30 4A 
   635)       335.9  Rx         005F  8  00 00 08 00 00 00 20 FA 
   636)       336.2  Rx         0101  8  00 00 80 00 00 00 30 63 
   637)       336.3  Rx         0176  4  03 00 30 37 
   638)       336.6  Rx         0203  8  44 5C 44 5A 44 5D 44 60 
   639)       337.1  Rx         03ED  8  00 FE 00 07 42 C0 17 E1 
   640)       337.8  Rx         01CF  8  00 00 02 00 20 00 D0 16 
   641)       338.1  Rx         01D8  8  00 00 00 00 00 00 D0 F2 
   642)       338.3  Rx         0378  8  00 50 52 15 59 50 10 00 
   643)       339.8  Rx         00F3  8  54 FF 01 66 1D 09 C0 6E 
   644)       341.6  Rx         034B  5  80 76 76 78 78 
   645)       342.8  Rx         0375  8  00 10 34 25 3F 00 00 00 
   646)       343.0  Rx         00DD  8  0C 80 00 00 00 00 C0 24 
   647)       343.8  Rx         0018  8  10 04 10 00 04 FF 60 8B 
   648)       344.0  Rx         0073  8  05 00 75 6A 00 80 C0 C8 
   649)       344.2  Rx         0045  8  00 00 40 00 00 00 21 0F 
   650)       344.5  Rx         006D  4  40 C0 60 26 
   651)       345.0  Rx         014B  8  09 FC 0D E0 07 10 F0 44 
   652)       345.2  Rx         01CD  8  29 D6 69 D6 29 D6 F0 C7 
   653)       345.5  Rx         00DE  8  00 93 07 FF 00 73 60 B2 
   654)       345.8  Rx         00D5  8  00 00 40 50 00 00 40 37 
   655)       346.0  Rx         00FF  8  00 93 07 FF 04 00 00 FF 
   656)       346.2  Rx         0104  8  00 00 03 00 FF 00 40 A9 
   657)       346.5  Rx         0201  8  F5 6D B3 8E 00 00 00 00 
   658)       346.7  Rx         0B41  8  7F A8 78 8D 85 7E 30 80 
   659)       348.6  Rx         00F9  8  80 02 00 5A 34 00 A0 A2 
   660)       349.8  Rx         00F3  8  54 FF 01 65 1D 09 D0 19 
   661)       350.6  Rx         02F1  8  83 40 40 00 FF 70 FF FF 
   662)       350.9  Rx         02F3  8  44 FF 00 00 01 35 00 FF 
   663)       351.6  Rx         0379  2  00 00 
   664)       353.1  Rx         0285  8  00 00 00 00 00 00 00 00 
   665)       353.8  Rx         0018  8  10 04 10 00 04 FF 70 46 
   666)       354.0  Rx         0073  8  05 00 75 6A 00 80 D0 05 
   667)       354.2  Rx         006D  4  40 C0 70 EB 
   668)       354.4  Rx         0105  8  07 EB 7F 4F 4B 8E 04 1E 
   669)       354.6  Rx         01CD  8  29 D7 69 D7 29 D7 00 2F 
   670)       354.8  Rx         02F7  6  7F FE 00 93 FF FF 
   671)       355.4  Rx         00FE  8  00 93 07 FF 00 8F 00 FF 
   672)       355.7  Rx         0005  8  00 10 00 02 09 00 40 A9 
   673)       356.0  Rx         005F  8  00 00 08 00 00 00 30 37 
   674)       356.3  Rx         0101  8  00 00 80 00 00 00 40 3A 
   675)       356.5  Rx         0176  4  03 00 40 6E 
   676)       356.8  Rx         0203  8  44 5C 44 5A 44 5E 44 60 
   677)       358.4  Rx         01CF  8  00 00 02 00 20 00 E0 5C 
   678)       358.7  Rx         01D8  8  00 00 00 00 00 00 E0 B8 
   679)       359.8  Rx         00F3  8  54 FF 01 63 1D 09 E0 3A 
   680)       360.4  Rx         0181  2  80 00 
   681)       361.6  Rx         034B  5  80 75 76 78 78 
   682)       362.8  Rx         00DD  8  0C 80 00 00 00 00 D0 E9 
   683)       363.1  Rx         0283  8  55 05 07 03 01 68 35 5A 
   684)       363.8  Rx         0018  8  10 04 10 00 04 FF 80 39 
   685)       364.1  Rx         0073  8  05 00 75 6A 00 80 E0 4F 
   686)       364.3  Rx         0045  8  00 00 40 00 00 00 31 C2 
   687)       364.5  Rx         014B  8  09 F9 0D E0 07 10 00 78 
   688)       364.7  Rx         006D  4  40 C0 80 94 
   689)       365.0  Rx         01CD  8  29 D6 69 D6 29 D6 10 75 
   690)       365.4  Rx         00DE  8  00 93 07 FF 00 73 70 7F 
   691)       365.7  Rx         00D5  8  00 00 40 50 00 00 50 FA 
   692)       365.9  Rx         00FF  8  00 93 07 FF 04 00 00 FF 
   693)       366.2  Rx         0104  8  00 00 03 00 FF 00 50 64 
   694)       366.4  Rx         0201  8  08 7F C5 A0 00 00 00 00 
   695)       366.7  Rx         0B41  8  7F A8 78 8D 85 7E 40 80 
   696)       366.9  Rx         0180  2  80 00 
   697)       367.9  Rx         0F7A  8  02 DA 5A 10 29 07 F0 E4 
   698)       369.9  Rx         00F3  8  54 FF 01 61 1D 09 F0 D0 
   699)       370.7  Rx         02F1  8  83 40 40 00 FF 70 FF FF 
   700)       371.0  Rx         02F3  8  44 FF 00 00 01 35 00 FF 
   701)       373.8  Rx         0018  8  10 04 10 00 04 FF 90 F4 
   702)       374.1  Rx         0073  8  05 00 75 6A 00 80 F0 82 
   703)       374.3  Rx         006D  4  40 C0 90 59 
   704)       375.2  Rx         0105  8  07 EC 7F 4F 4B 8E 14 1C 
   705)       375.5  Rx         00FE  8  00 93 07 FF 00 8F 00 FF 
   706)       375.7  Rx         0005  8  00 10 00 01 09 00 50 DE 
   707)       375.9  Rx         01CD  8  29 D6 69 D6 29 D6 20 3F 
   708)       376.2  Rx         005F  8  00 00 08 00 00 00 40 6E 
   709)       376.4  Rx         0205  8  82 8F 00 00 00 00 00 00 
   710)       376.7  Rx         0101  8  00 00 80 00 00 00 50 F7 
   711)       376.9  Rx         02F7  6  7F FE 00 93 FF FF 
   712)       377.0  Rx         0176  4  03 00 50 A3 
   713)       377.2  Rx         030D  8  80 39 8C FF FF 0F EC 81 
   714)       377.5  Rx         012D  8  0F 0F 00 00 C0 17 E1 E5 
   715)       377.7  Rx         0203  8  44 5C 44 5D 44 63 44 60 
   716)       378.0  Rx         01CF  8  00 00 02 00 20 00 F0 91 
   717)       378.2  Rx         01D8  8  00 00 00 00 00 00 F0 75 
   718)       378.4  Rx         0247  8  00 00 00 00 00 00 00 00 
   719)       380.0  Rx         00F3  8  54 FF 01 5F 1D 09 00 35 
   720)       381.6  Rx         034B  5  80 75 76 77 77 
   721)       382.8  Rx         00DD  8  0C 80 00 00 00 00 E0 A3 
   722)       383.9  Rx         0018  8  10 04 10 00 04 FF A0 BE 
   723)       384.1  Rx         0073  8  05 00 75 6A 00 80 00 FD 
   724)       384.3  Rx         0045  8  00 00 40 00 00 00 41 9B 
   725)       384.6  Rx         014B  8  09 F8 0D DF 07 10 10 F4 
   726)       384.7  Rx         006D  4  40 C0 A0 13 
   727)       385.0  Rx         01CD  8  29 D7 69 D7 29 D7 30 65 
   728)       385.2  Rx         0349  8  01 A0 FF 42 8A 64 3F 00 
   729)       385.5  Rx         00D5  8  00 00 40 50 00 00 60 B0 
   730)       385.7  Rx         00DE  8  00 93 07 FF 00 73 80 00 
   731)       386.0  Rx         00FF  8  00 93 07 FF 04 00 00 FF 
   732)       386.2  Rx         0104  8  00 00 03 00 FF 00 60 2E 
   733)       386.5  Rx         0201  8  19 91 D6 B1 00 00 00 00 
   734)       386.7  Rx         0B41  8  7F A8 78 8D 86 7D 50 80 
   735)       387.2  Rx         0001  8  4C C1 8F A0 AA 00 07 55 
   736)       387.8  Rx         0407  8  FD 09 04 0F 10 00 00 07 
   737)       389.8  Rx         00F3  8  54 FF 01 5D 1D 09 10 DF 
   738)       390.6  Rx         02F1  8  83 40 40 00 FF 70 FF FF 
   739)       390.9  Rx         02F3  8  44 FF 00 00 01 35 00 FF 
   740)       393.9  Rx         0018  8  10 04 10 00 04 FF B0 73 
   741)       394.1  Rx         0073  8  05 00 75 6A 00 80 10 30 
   742)       394.3  Rx         006D  4  40 C0 B0 DE 
   743)       394.9  Rx         0105  8  07 E7 7F 4F 4B 8E 24 96 
   744)       395.1  Rx         01CD  8  29 D8 69 D8 29 D8 40 32 
   745)       395.3  Rx         02F7  6  7F FE 00 93 FF FF 
   746)       395.5  Rx         0005  8  00 10 00 01 09 00 60 94 
   747)       395.8  Rx         00FE  8  00 93 07 FF 00 8F 00 FF 
   748)       396.0  Rx         005F  8  00 00 08 00 00 00 50 A3 
   749)       396.2  Rx         033D  4  00 40 00 00 
   750)       396.4  Rx         0101  8  00 00 80 00 00 00 60 BD 
   751)       396.6  Rx         0176  4  03 00 60 E9 
   752)       396.9  Rx         0203  8  44 5D 44 5D 44 5E 44 63 
   753)       397.1  Rx         039D  8  42 7F 01 9E F0 08 00 DF 
   754)       397.3  Rx         037A  7  C0 17 E1 E5 07 F0 E4 
   755)       398.5  Rx         01CF  8  00 00 02 00 20 00 00 EE 
   756)       398.8  Rx         01D8  8  00 00 00 00 00 00 00 0A 
   757)       399.9  Rx         00F3  8  54 FF 01 5C 1D 09 20 08 
   758)       401.7  Rx         034B  5  80 74 76 77 77 
   759)       402.9  Rx         00DD  8  0C 80 00 00 00 00 F0 6E 
   760)       403.8  Rx         0018  8  10 04 10 00 04 FF C0 2A 
   761)       404.0  Rx         0073  8  05 00 75 6A 00 80 20 7A 
   762)       404.3  Rx         0045  8  00 00 40 00 00 00 51 56 
   763)       404.6  Rx         006D  4  40 C0 C0 87 
   764)       405.1  Rx         014B  8  09 F5 0D DF 07 10 20 F7 
   765)       405.3  Rx         01CD  8  29 DA 69 DA 29 DA 50 CC 
   766)       405.5  Rx         00D5  8  00 00 40 50 00 00 70 7D 
   767)       405.8  Rx         00DE  8  00 93 07 FF 00 73 90 CD 
   768)       406.0  Rx         00FF  8  00 93 07 FF 04 00 00 FF 
   769)       406.3  Rx         0104  8  00 00 03 00 FF 00 70 E3 
   770)       406.4  Rx         0178  4  00 04 00 00 
   771)       406.7  Rx         0201  8  2B A3 E8 C3 00 00 00 00 
   772)       406.9  Rx         0B41  8  7F A8 78 8D 89 7D 60 80 
   773)       407.8  Rx         03F3  8  01 90 00 C4 01 90 00 C4 
   774)       409.8  Rx         00F3  8  54 FF 01 59 1D 09 30 16 
   775)       410.6  Rx         02F1  8  83 40 40 00 FF 70 FF FF 
   776)       410.9  Rx         03D4  8  00 00 00 00 00 00 00 00 
   777)       411.1  Rx         02F3  8  44 FF 00 00 01 35 00 FF 
   778)       413.8  Rx         0018  8  10 04 10 00 04 FF D0 E7 
   779)       414.0  Rx         0073  8  05 00 75 6A 00 80 30 B7 
   780)       414.2  Rx         006D  4  40 C0 D0 4A 
   781)       414.4  Rx         0105  8  07 DF 7F 4F 4B 8E 34 6D 
   782)       414.6  Rx         01CD  8  29 DC 69 DC 29 DC 60 D3 
   783)       414.8  Rx         02F7  6  7F FE 00 93 FF FF 
   784)       415.1  Rx         037E  8  B5 64 5E FF FF FF 00 FF 
   785)       415.5  Rx         0005  8  00 10 00 01 09 00 70 59 
   786)       415.7  Rx         00FE  8  00 93 07 FF 00 8F 00 FF 
   787)       416.0  Rx         005F  8  00 00 08 00 00 00 60 E9 
   788)       416.3  Rx         0101  8  00 00 80 00 00 00 70 70 
   789)       416.5  Rx         0176  4  03 00 70 24 
   790)       416.8  Rx         0203  8  44 5E 44 5E 44 60 44 5F 
   791)       417.8  Rx         03ED  8  00 FE 00 07 42 C0 17 E1 
   792)       418.0  Rx         01CF  8  00 00 02 00 20 00 10 23 
   793)       418.2  Rx         01D8  8  00 00 00 00 00 00 10 C7 
   794)       419.5  Rx         0069  2  0C 01 
   795)       419.9  Rx         00F3  8  54 FF 01 57 1D 09 40 BA 
   796)       421.6  Rx         034B  5  80 72 75 76 76 
   797)       422.8  Rx         00DD  8  0C 80 00 00 00 00 00 11 
   798)       423.8  Rx         0018  8  10 04 10 00 04 FF E0 AD 
   799)       424.0  Rx         0073  8  05 00 75 6A 00 80 40 EE 
   800)       424.3  Rx         0045  8  00 00 40 00 00 00 61 1C 
   801)       424.6  Rx         006D  4  40 C0 E0 00 
   802)       425.2  Rx         014B  8  09 F4 0D DF 07 10 30 7C 
   803)       425.4  Rx         01CD  8  29 DE 69 DE 29 DE 70 2D 
   804)       425.7  Rx         00D5  8  00 00 40 50 00 00 80 02 
   805)       425.9  Rx         00DE  8  00 93 07 FF 00 73 A0 87 
   806)       426.1  Rx         00FF  8  00 93 07 FF 04 00 00 FF 
   807)       426.4  Rx         0104  8  00 00 03 00 FF 00 80 9C 
   808)       426.7  Rx         0201  8  3D B5 FA D5 00 00 00 00 
   809)       426.9  Rx         0B41  8  7F 97 78 8D 88 7D 70 80 
   810)       429.8  Rx         00F3  8  54 FF 01 55 1D 09 50 50 
   811)       430.6  Rx         02F1  8  83 40 40 00 FF 70 FF FF 
   812)       430.9  Rx         02F3  8  44 FF 00 00 01 35 00 FF 
   813)       433.8  Rx         0018  8  10 04 10 00 04 FF F0 60 
   814)       434.0  Rx         0073  8  05 00 75 6A 00 80 50 23 
   815)       434.2  Rx         006D  4  40 C0 F0 CD 
   816)       434.9  Rx         03C5  8  30 00 03 00 F0 00 00 00 
   817)       435.1  Rx         0105  8  07 D0 7F 4F 4B 8E 44 F1 
   818)       435.4  Rx         01CD  8  29 E0 69 E0 29 E0 80 59 
   819)       435.7  Rx         0005  8  00 10 00 01 09 00 80 26 
   820)       435.9  Rx         00FE  8  00 93 07 FF 00 8F 00 FF 
   821)       436.1  Rx         005F  8  00 00 08 00 00 00 70 24 
   822)       436.3  Rx         02F7  6  7F FE 00 93 FF FF 
   823)       436.6  Rx         0101  8  00 00 80 00 00 00 80 0F 
   824)       436.8  Rx         0176  4  03 00 80 5B 
   825)       437.1  Rx         0203  8  44 5F 44 5C 44 5F 44 62 
   826)       438.4  Rx         01CF  8  00 00 02 00 20 00 20 69 
   827)       438.7  Rx         017E  8  00 00 00 00 00 00 00 00 
   828)       438.9  Rx         0183  8  89 00 00 00 00 00 00 00 
   829)       439.2  Rx         01D8  8  00 00 00 00 00 00 20 8D 
   830)       439.4  Rx         0378  8  00 50 52 15 59 50 10 00 
   831)       439.8  Rx         00F3  8  54 FF 01 52 1D 09 60 EE 
   832)       441.6  Rx         034B  5  80 71 75 76 76 
   833)       442.8  Rx         00DD  8  0C 80 00 00 00 00 10 DC 
   834)       443.0  Rx         0375  8  00 10 34 25 3F 00 00 00 
   835)       443.8  Rx         0018  8  10 04 10 00 04 FF 00 1F 
   836)       444.1  Rx         0073  8  05 00 75 6A 00 80 60 69 
   837)       444.4  Rx         0045  8  00 00 40 00 00 00 71 D1 
   838)       444.6  Rx         014B  8  09 F4 0D DB 07 10 40 6B 
   839)       444.7  Rx         006D  4  40 C0 00 B2 
   840)       445.0  Rx         01CD  8  29 E2 69 E2 29 E2 90 A7 
   841)       445.2  Rx         02F5  8  44 00 00 00 01 00 00 00 
   842)       445.6  Rx         00D5  8  00 00 40 50 00 00 90 CF 
   843)       445.8  Rx         00DE  8  00 93 07 FF 00 73 B0 4A 
   844)       446.1  Rx         00FF  8  00 93 07 FF 04 00 00 FF 
   845)       446.3  Rx         0104  8  00 00 03 00 FF 00 90 51 
   846)       446.5  Rx         05A1  8  10 11 61 0E 67 64 01 F2 
   847)       446.8  Rx         0201  8  4F C7 0D E7 00 00 00 00 
   848)       447.0  Rx         0B41  8  7F A8 78 8D 88 7D 80 80 
   849)       448.6  Rx         00F9  8  80 02 00 5A 34 00 B0 6F 
   850)       449.8  Rx         00F3  8  54 FF 01 50 1D 09 70 04 
   851)       450.6  Rx         02F1  8  83 40 40 00 FF 70 FF FF 
   852)       450.9  Rx         02F3  8  44 FF 00 00 01 35 00 FF 
   853)       453.8  Rx         0073  8  05 00 75 6A 00 80 70 A4 
   854)       454.1  Rx         0018  8  10 04 10 00 04 FF 10 D2 
   855)       454.3  Rx         0105  8  07 BC 7F 4F 4B 8E 54 4B 
   856)       454.5  Rx         006D  4  40 C0 10 7F 
   857)       454.7  Rx         01CD  8  29 E6 69 E6 29 E6 A0 8B 
   858)       454.9  Rx         02F7  6  7F FE 00 93 FF FF 
   859)       455.5  Rx         0005  8  00 10 00 01 09 00 90 EB 
   860)       455.7  Rx         00FE  8  00 93 07 FF 00 8F 00 FF 
   861)       456.0  Rx         005F  8  00 00 08 06 00 00 80 32 
   862)       456.2  Rx         0285  8  00 00 00 00 00 00 00 00 
   863)       456.4  Rx         0101  8  00 00 80 00 00 00 90 C2 
   864)       456.7  Rx         0176  4  03 00 90 96 
   865)       456.9  Rx         0203  8  44 5E 44 60 44 61 44 64 
   866)       457.8  Rx         01CF  8  00 00 02 00 20 00 30 A4 
   867)       458.1  Rx         01D8  8  00 00 00 00 00 00 30 40 
   868)       459.8  Rx         00F3  8  54 FF 01 4D 1D 09 80 11 
   869)       461.6  Rx         034B  5  80 71 74 75 75 
   870)       462.8  Rx         00DD  8  0C 80 00 00 00 00 20 96 
   871)       463.8  Rx         0018  8  10 04 10 00 04 FF 20 98 
   872)       464.0  Rx         0073  8  05 00 75 6A 00 80 80 DB 
   873)       464.2  Rx         0045  8  00 00 40 00 00 00 81 AE 
   874)       464.5  Rx         006D  4  40 C0 20 35 
   875)       465.4  Rx         00D5  8  00 00 40 50 00 00 A0 85 
   876)       465.7  Rx         00DE  8  00 93 07 FF 00 73 C0 13 
   877)       465.9  Rx         00FF  8  00 93 07 FF 04 00 00 FF 
   878)       466.2  Rx         0104  8  00 00 03 00 FF 00 A0 1B 
   879)       466.4  Rx         014B  8  09 F0 0D DB 07 10 50 A3 
   880)       466.6  Rx         01CD  8  29 E8 69 E8 29 E8 B0 DF 
   881)       466.9  Rx         0201  8  61 D9 1F F9 00 00 00 00 
   882)       467.1  Rx         0F7A  8  02 DD 5A 10 29 07 F0 E4 
   883)       467.3  Rx         0B41  8  7F 97 78 8D 89 7B 90 80 
   884)       467.6  Rx         0283  8  55 05 07 03 01 68 35 5A 
   885)       469.8  Rx         00F3  8  54 FF 01 4C 1D 09 90 41 
   886)       470.6  Rx         02F1  8  83 40 40 00 FF 70 FF FF 
   887)       470.9  Rx         02F3  8  44 FF 00 00 01 35 00 FF 
   888)       473.9  Rx         0018  8  10 04 10 00 04 FF 30 55 
   889)       474.1  Rx         0073  8  05 00 75 6A 00 80 90 16 
   890)       474.3  Rx         006D  4  40 C0 30 F8 
   891)       474.6  Rx         0105  8  07 A8 7F 4F 4B 8E 64 10 
   892)       474.8  Rx         01CD  8  29 EB 69 EB 29 EB C0 22 
   893)       475.0  Rx         02F7  6  7F FE 00 93 FF FF 
   894)       475.2  Rx         030D  8  80 39 8C FF FF 10 C5 81 
   895)       475.5  Rx         0005  8  00 10 00 01 09 00 A0 A1 
   896)       475.8  Rx         005F  8  00 00 08 01 00 00 90 0B 
   897)       476.1  Rx         00FE  8  00 93 07 FF 00 8F 00 FF 
   898)       476.2  Rx         0101  8  00 00 80 00 00 00 A0 88 
   899)       476.5  Rx         0205  8  82 8F 00 00 00 00 00 00 
   900)       476.7  Rx         05A1  8  21 C0 FF FF 3F 19 00 02 
   901)       476.9  Rx         0176  4  03 00 A0 DC 
   902)       477.2  Rx         0203  8  44 60 44 5E 44 63 44 62 
   903)       477.4  Rx         012D  8  0F 0F 00 00 C0 17 E1 E5 
   904)       477.6  Rx         0247  8  00 00 00 00 00 00 00 00 
   905)       478.4  Rx         01CF  8  00 00 02 00 20 00 40 FD 
   906)       478.7  Rx         01D8  8  00 00 00 00 00 00 40 19 
   907)       479.9  Rx         00F3  8  54 FF 01 4A 1D 09 A0 62 
   908)       481.6  Rx         034B  5  80 70 75 74 74 
   909)       482.7  Rx         0409  8  FD 12 04 0F 20 00 00 07 
   910)       483.0  Rx         00DD  8  0C 80 00 00 00 00 30 5B 
   911)       483.4  Rx         0204  8  00 57 44 44 32 32 31 30 
   912)       483.9  Rx         0018  8  10 04 10 00 04 FF 40 0C 
   913)       484.1  Rx         0073  8  05 00 75 6A 00 80 A0 5C 
   914)       484.3  Rx         0045  8  00 00 40 00 00 00 91 63 
   915)       484.5  Rx         014B  8  09 EB 0D DB 07 10 60 3D 
   916)       484.7  Rx         006D  4  40 C0 40 A1 
   917)       485.0  Rx         01CD  8  29 F0 69 F0 29 F0 D0 02 
   918)       485.2  Rx         0349  8  01 A0 FF 42 8A 64 3F 00 
   919)       485.4  Rx         00D5  8  00 00 40 50 00 00 B0 48 
   920)       485.7  Rx         0104  8  00 00 03 00 FF 00 B0 D6 
   921)       486.0  Rx         00DE  8  00 93 07 FF 00 73 D0 DE 
   922)       486.2  Rx         00FF  8  00 93 07 FF 04 00 00 FF 
   923)       486.4  Rx         0201  8  73 EA 31 0C 00 00 00 00 
   924)       486.6  Rx         0178  4  00 04 00 00 
   925)       486.8  Rx         0B41  8  7F A8 78 8D 89 7B A0 80 
   926)       487.1  Rx         037D  8  00 00 00 00 00 20 4D 87 
   927)       487.3  Rx         0001  8  4C C1 8F A0 AA 00 17 98 
   928)       487.7  Rx         03F3  8  01 90 00 C4 01 90 00 C4 
   929)       489.6  Rx         0015  4  42 FE B0 64 
   930)       489.9  Rx         00F3  8  54 FF 01 49 1D 09 B0 15 
   931)       490.8  Rx         02F1  8  83 40 40 00 FF 70 FF FF 
   932)       491.1  Rx         02F3  8  44 FF 00 00 01 35 00 FF 
   933)       493.8  Rx         0018  8  10 04 10 00 04 FF 50 C1 
   934)       494.1  Rx         0073  8  05 00 75 6A 00 80 B0 91 
   935)       494.3  Rx         006D  4  40 C0 50 6C 
   936)       495.1  Rx         0105  8  07 8F 7F 4F 4B 8E 74 3A 
   937)       495.3  Rx         01CD  8  29 EA 69 EA 29 EA E0 32 
   938)       495.6  Rx         0005  8  00 10 00 00 09 00 B0 F1 
   939)       495.8  Rx         00FE  8  00 93 07 FF 00 8F 00 FF 
   940)       496.1  Rx         005F  8  00 00 08 00 00 00 A0 DC 
   941)       496.2  Rx         02F7  6  7F FE 00 93 FF FF 
   942)       496.5  Rx         0101  8  00 00 80 00 00 00 B0 45 
   943)       496.7  Rx         033D  4  00 40 00 00 
   944)       496.8  Rx         0176  4  03 00 B0 11 
   945)       497.1  Rx         0203  8  44 61 44 62 44 62 44 60 
   946)       497.7  Rx         039D  8  42 7F 01 9E F0 08 00 67 
   947)       498.0  Rx         01CF  8  00 00 02 00 20 00 50 30 
   948)       498.2  Rx         01D8  8  00 00 00 00 00 00 50 D4 
   949)       498.5  Rx         03ED  8  00 FE 00 07 42 C0 17 E1 
   950)       499.9  Rx         00F3  8  54 FF 01 45 1D 09 C0 9E 
   951)       501.6  Rx         034B  5  80 70 75 73 73 
   952)       502.0  Rx         0204  8  01 37 30 31 41 31 32 35 
   953)       503.1  Rx         00DD  8  0C 80 00 00 00 00 40 02 
   954)       503.7  Rx         0018  8  10 04 10 00 04 FF 60 8B 
   955)       504.0  Rx         0073  8  05 00 75 6A 00 80 C0 C8 
   956)       504.2  Rx         0045  8  00 00 40 00 00 00 A1 29 
   957)       504.6  Rx         006D  4  40 C0 60 26 
   958)       505.2  Rx         014B  8  09 EE 0D C8 07 10 70 2C 
   959)       505.5  Rx         00D5  8  00 00 40 50 00 00 C0 11 
   960)       505.7  Rx         01CD  8  29 ED 69 ED 29 ED F0 3D 
   961)       505.9  Rx         00DE  8  00 93 07 FF 00 73 E0 94 
   962)       506.2  Rx         00FF  8  00 93 07 FF 04 00 00 FF 
   963)       506.4  Rx         0104  8  00 00 03 00 FF 00 C0 8F 
   964)       506.6  Rx         0202  4  02 00 00 F2 
   965)       506.8  Rx         05A1  8  22 00 00 00 00 19 00 02 
   966)       507.1  Rx         0201  8  85 FC 43 1E 00 00 00 00 
   967)       507.4  Rx         0B41  8  7F A8 78 8D 89 7B B0 80 
   968)       509.6  Rx         03D4  8  00 00 00 00 00 00 00 00 
   969)       510.0  Rx         00F3  8  54 FF 01 44 1D 09 D0 CE 
   970)       510.8  Rx         02F1  8  83 40 40 00 FF 70 FF FF 
   971)       511.1  Rx         02F3  8  44 FF 00 00 01 35 00 FF 
   972)       513.7  Rx         0018  8  10 04 10 00 04 FF 70 46 
   973)       514.0  Rx         0073  8  05 00 75 6A 00 80 D0 05 
   974)       514.2  Rx         006D  4  40 C0 70 EB 
   975)       514.7  Rx         0105  8  07 7C 7F 4F 4B 8E 84 43 
   976)       515.0  Rx         01CD  8  29 F2 69 F2 29 F2 00 C9 
   977)       515.2  Rx         02F7  6  7F FE 00 93 FF FF 
   978)       515.4  Rx         0005  8  00 10 00 00 09 00 C0 A8 
   979)       515.6  Rx         037E  8  B5 64 5E FF FF FF 00 FF 
   980)       515.9  Rx         005F  8  00 00 08 00 00 00 B0 11 
   981)       516.1  Rx         00FE  8  00 93 07 FF 00 8F 00 FF 
   982)       516.4  Rx         0101  8  00 00 80 00 00 00 C0 1C 
   983)       516.6  Rx         0176  4  03 00 C0 48 
   984)       516.8  Rx         0203  8  44 60 44 60 44 63 44 66 
   985)       518.4  Rx         01CF  8  00 00 02 00 20 00 60 7A 
   986)       518.6  Rx         01D8  8  00 00 00 00 00 00 60 9E 
   987)       519.5  Rx         0069  2  0C 01 
   988)       520.2  Rx         00F3  8  54 FF 01 42 1D 09 E0 ED 
   989)       521.6  Rx         034B  5  80 71 75 73 73 
   990)       522.0  Rx         0204  8  02 35 31 38 FF FF FF FF 
   991)       522.9  Rx         00DD  8  0C 80 00 00 00 00 50 CF 
   992)       523.7  Rx         0018  8  10 04 10 00 04 FF 80 39 
   993)       524.0  Rx         0073  8  05 00 75 6A 00 80 E0 4F 
   994)       524.2  Rx         0045  8  00 00 40 00 00 00 B1 E4 
   995)       524.5  Rx         006D  4  40 C0 80 94 
   996)       524.7  Rx         014B  8  09 EC 0D C8 07 10 80 DF 
   997)       525.0  Rx         01CD  8  29 F4 69 F4 29 F4 10 51 
   998)       525.5  Rx         00D5  8  00 00 40 50 00 00 D0 DC 
   999)       525.8  Rx         0104  8  00 00 03 00 FF 00 D0 42 
  1000)       526.0  Rx         00DE  8  00 93 07 FF 00 73 F0 59 
  1001)       526.2  Rx         00FF  8  00 93 07 FF 04 00 00 FF 
  1002)       526.5  Rx         0201  8  97 0F 55 30 00 00 00 00 
  1003)       526.8  Rx         0B41  8  7F 97 78 8D 89 7A C0 80 
  1004)       529.9  Rx         00F3  8  54 FF 01 40 1D 09 F0 07 
  1005)       530.7  Rx         02F1  8  83 40 40 00 FF 70 FF FF 
  1006)       530.9  Rx         02F3  8  44 FF 00 00 01 35 00 FF 
  1007)       533.7  Rx         0018  8  10 04 10 00 04 FF 90 F4 
  1008)       534.0  Rx         0073  8  05 00 75 6A 00 80 F0 82 
  1009)       534.1  Rx         006D  4  40 C0 90 59 
  1010)       535.1  Rx         0105  8  07 61 7F 4F 4B 8E 94 D3 
  1011)       535.4  Rx         01CD  8  29 F7 69 F7 29 F7 20 BF 
  1012)       535.6  Rx         0005  8  00 10 00 01 09 00 D0 F8 
  1013)       535.8  Rx         02F7  6  7F FE 00 93 FF FF 
  1014)       536.1  Rx         005F  8  00 00 08 00 00 00 C0 48 
  1015)       536.3  Rx         00FE  8  00 93 07 FF 00 8F 00 FF 
  1016)       536.6  Rx         0101  8  00 00 80 00 00 00 D0 D1 
  1017)       536.8  Rx         0176  4  03 00 D0 85 
  1018)       537.1  Rx         0203  8  44 60 44 5F 44 65 44 64 
  1019)       537.8  Rx         01CF  8  00 00 02 00 20 00 70 B7 
  1020)       538.1  Rx         01D8  8  00 00 00 00 00 00 70 53 
  1021)       538.7  Rx         03C5  8  30 00 03 00 F0 00 00 00 
  1022)       539.9  Rx         00F3  8  54 FF 01 3E 1D 09 00 76 
  1023)       541.6  Rx         034B  5  80 71 76 72 72 
  1024)       542.8  Rx         0375  8  00 10 34 25 3F 00 00 00 
  1025)       543.0  Rx         00DD  8  0C 80 00 00 00 00 60 85 
  1026)       543.8  Rx         0018  8  10 04 10 00 04 FF A0 BE 
  1027)       544.1  Rx         0073  8  05 00 75 6A 00 80 00 FD 
  1028)       544.3  Rx         0045  8  00 00 40 00 00 00 C1 BD 
  1029)       544.6  Rx         006D  4  40 C0 A0 13 
  1030)       545.4  Rx         014B  8  09 F1 0D B6 07 0F 90 56 
  1031)       545.7  Rx         00D5  8  00 00 40 50 00 00 E0 96 
  1032)       545.9  Rx         01CD  8  29 F1 69 F1 29 F1 30 27 
  1033)       546.2  Rx         00DE  8  00 93 07 FF 00 73 00 26 
  1034)       546.4  Rx         00FF  8  00 93 07 FF 04 00 00 FF 
  1035)       546.7  Rx         0104  8  00 00 03 00 FF 00 E0 08 
  1036)       546.9  Rx         0201  8  A9 21 67 42 00 00 00 00 
  1037)       547.2  Rx         0B41  8  7F A8 78 8D 88 7A D0 80 
  1038)       548.6  Rx         00F9  8  80 02 00 5A 34 00 C0 36 
  1039)       549.9  Rx         00F3  8  54 FF 01 3B 1D 09 10 68 
  1040)       550.6  Rx         02F1  8  83 40 40 00 FF 70 FF FF 
  1041)       550.9  Rx         02F3  8  44 FF 00 00 01 35 00 FF 
  1042)       551.6  Rx         0379  2  00 00 
  1043)       553.7  Rx         0018  8  10 04 10 00 04 FF B0 73 
  1044)       554.0  Rx         0073  8  05 00 75 6A 00 80 10 30 
  1045)       554.1  Rx         006D  4  40 C0 B0 DE 
  1046)       554.5  Rx         0105  8  07 52 7F 4F 4B 8E A4 6F 
  1047)       554.7  Rx         01CD  8  29 F4 69 F4 29 F4 40 8F 
  1048)       554.9  Rx         02F7  6  7F FE 00 93 FF FF 
  1049)       555.5  Rx         0005  8  00 10 00 01 09 00 E0 B2 
  1050)       555.7  Rx         005F  8  00 00 08 00 00 00 D0 85 
  1051)       556.0  Rx         0101  8  00 00 80 00 00 00 E0 9B 
  1052)       556.2  Rx         00FE  8  00 93 07 FF 00 8F 00 FF 
  1053)       556.4  Rx         0176  4  03 00 E0 CF 
  1054)       556.6  Rx         0203  8  44 62 44 5F 44 62 44 64 
  1055)       558.4  Rx         01CF  8  00 00 02 00 20 00 80 C8 
  1056)       558.7  Rx         01D8  8  00 00 00 00 00 00 80 2C 
  1057)       559.7  Rx         0285  8  00 00 00 00 00 00 00 00 
  1058)       559.9  Rx         00F3  8  54 FF 01 38 1D 09 20 98 
  1059)       561.6  Rx         034B  5  80 71 77 72 72 
  1060)       562.9  Rx         00DD  8  0C 80 00 00 00 00 70 48 
  1061)       563.7  Rx         0018  8  10 04 10 00 04 FF C0 2A 
  1062)       563.9  Rx         0073  8  05 00 75 6A 00 80 20 7A 
  1063)       564.2  Rx         0045  8  00 00 40 00 00 00 D1 70 
  1064)       564.5  Rx         006D  4  40 C0 C0 87 
  1065)       564.7  Rx         014B  8  09 F0 0D B6 07 10 A0 4D 
  1066)       564.9  Rx         01CD  8  29 F7 69 F7 29 F7 50 E6 
  1067)       565.4  Rx         00D5  8  00 00 40 50 00 00 F0 5B 
  1068)       565.7  Rx         0104  8  00 00 03 00 FF 00 F0 C5 
  1069)       565.8  Rx         0178  4  00 04 00 00 
  1070)       566.0  Rx         0201  8  BB 33 79 54 00 00 00 00 
  1071)       566.3  Rx         00DE  8  00 93 07 FF 00 73 10 EB 
  1072)       566.5  Rx         00FF  8  00 93 07 FF 04 00 00 FF 
  1073)       566.8  Rx         0B41  8  7F A8 78 8D 89 7A E0 80 
  1074)       567.4  Rx         0F7A  8  02 DE 5A 10 29 07 F0 E4 
  1075)       567.7  Rx         03F3  8  01 90 00 C4 01 90 00 C4 
  1076)       569.9  Rx         00F3  8  54 FF 01 36 1D 09 30 A0 
  1077)       570.6  Rx         02F1  8  83 40 40 00 FF 70 FF FF 
  1078)       570.9  Rx         02F3  8  44 FF 00 00 01 35 00 FF 
  1079)       571.8  Rx         0283  8  55 05 07 03 01 68 35 5A 
  1080)       573.9  Rx         0018  8  10 04 10 00 04 FF D0 E7 
  1081)       574.1  Rx         0073  8  05 00 75 6A 00 80 30 B7 
  1082)       574.3  Rx         006D  4  40 C0 D0 4A 
  1083)       575.5  Rx         0105  8  07 3D 7F 4F 4B 8E B4 1F 
  1084)       575.7  Rx         0005  8  00 10 00 00 09 00 F0 E2 
  1085)       576.0  Rx         01CD  8  29 F7 69 F7 29 F7 60 AC 
  1086)       576.2  Rx         005F  8  00 00 08 00 00 00 E0 CF 
  1087)       576.4  Rx         00FE  8  00 93 07 FF 00 8F 00 FF 
  1088)       576.7  Rx         0101  8  00 00 80 00 00 00 F0 56 
  1089)       577.0  Rx         0205  8  82 8F 00 00 00 00 00 00 
  1090)       577.1  Rx         0176  4  03 00 F0 02 
  1091)       577.3  Rx         012D  8  0F 0F 00 00 C0 17 E1 E5 
  1092)       577.6  Rx         0203  8  44 61 44 61 44 64 44 65 
  1093)       577.8  Rx         02F7  6  7F FE 00 93 FF FF 
  1094)       578.0  Rx         01CF  8  00 00 02 00 20 00 90 05 
  1095)       578.3  Rx         01D8  8  00 00 00 00 00 00 90 E1 
  1096)       578.5  Rx         0247  8  00 00 00 00 00 00 00 00 
  1097)       578.7  Rx         030D  8  80 39 8C FF FF 0F B1 81 
  1098)       579.0  Rx         03ED  8  00 FE 00 07 42 C0 17 E1 
  1099)       579.9  Rx         00F3  8  54 FF 01 34 1D 09 40 DE 
  1100)       581.7  Rx         034B  5  80 72 77 71 71 
  1101)       581.9  Rx         0412  8  FD 15 04 0F 10 00 00 07 
  1102)       582.8  Rx         00DD  8  0C 80 00 00 00 00 80 37 
  1103)       583.8  Rx         0018  8  10 04 10 00 04 FF E0 AD 
  1104)       584.0  Rx         0073  8  05 00 75 6A 00 80 40 EE 
  1105)       584.3  Rx         0045  8  00 00 40 00 00 00 E1 3A 
  1106)       584.6  Rx         006D  4  40 C0 E0 00 
  1107)       585.4  Rx         014B  8  09 F7 0D B7 07 10 B0 D2 
  1108)       585.7  Rx         00D5  8  00 00 40 50 00 00 00 24 
  1109)       585.9  Rx         01CD  8  29 F9 69 F9 29 F9 70 F8 
  1110)       586.1  Rx         0104  8  00 00 03 00 FF 00 00 BA 
  1111)       586.4  Rx         00DE  8  00 93 07 FF 00 73 20 A1 
  1112)       586.6  Rx         00FF  8  00 93 07 FF 04 00 00 FF 
  1113)       586.9  Rx         0201  8  CD 45 8B 66 00 00 00 00 
  1114)       587.1  Rx         0349  8  01 A0 FF 42 8A 64 3F 00 
  1115)       587.3  Rx         0001  8  4C C1 8F A0 AA 00 27 D2 
  1116)       587.5  Rx         0B41  8  7F A8 78 8D 88 7A F0 80 
  1117)       589.9  Rx         00F3  8  54 FF 01 32 1D 09 50 7A 
  1118)       590.7  Rx         02F1  8  83 40 40 00 FF 70 FF FF 
  1119)       591.0  Rx         02F3  8  44 FF 00 00 01 35 00 FF 
  1120)       593.8  Rx         0018  8  10 04 10 00 04 FF F0 60 
  1121)       594.1  Rx         0073  8  05 00 75 6A 00 80 50 23 
  1122)       594.2  Rx         006D  4  40 C0 F0 CD 
  1123)       594.8  Rx         0105  8  07 35 7F 4F 4B 8E C4 4C 
  1124)       595.1  Rx         01CD  8  29 F6 69 F6 29 F6 80 89 
  1125)       595.3  Rx         02F7  6  7F FE 00 93 FF FF 
  1126)       595.6  Rx         0005  8  00 10 00 00 09 00 00 9D 
  1127)       595.8  Rx         033D  4  00 40 00 00 
  1128)       596.0  Rx         005F  8  00 00 08 00 00 00 F0 02 
  1129)       596.2  Rx         00FE  8  00 93 07 FF 00 8F 00 FF 
  1130)       596.5  Rx         0101  8  00 00 80 00 00 00 00 29 
  1131)       596.6  Rx         0176  4  03 00 00 7D 
  1132)       596.9  Rx         0203  8  44 61 44 61 44 64 44 68 
  1133)       597.1  Rx         039D  8  42 7F 01 9E F0 08 00 EF 
  1134)       598.5  Rx         01CF  8  00 00 02 00 20 00 A0 4F 
  1135)       598.8  Rx         01D8  8  00 00 00 00 00 00 A0 AB 
  1136)       600.0  Rx         00F3  8  54 FF 01 30 1D 09 60 17 
  1137)       601.6  Rx         034B  5  80 73 77 6F 6F 
  1138)       602.9  Rx         00DD  8  0C 80 00 00 00 00 90 FA 
  1139)       603.8  Rx         0018  8  10 04 10 00 04 FF 00 1F 
  1140)       604.0  Rx         0073  8  05 00 75 6A 00 80 60 69 
  1141)       604.2  Rx         0045  8  00 00 40 00 00 00 F1 F7 
  1142)       604.5  Rx         006D  4  40 C0 00 B2 
  1143)       604.7  Rx         014B  8  09 FB 0D A8 07 11 C0 85 
  1144)       605.0  Rx         01CD  8  29 F6 69 F6 29 F6 90 44 
  1145)       605.5  Rx         00D5  8  00 00 40 50 00 00 10 E9 
  1146)       605.8  Rx         0104  8  00 00 03 00 FF 00 10 77 
  1147)       606.0  Rx         0201  8  DF 57 9D 78 00 00 00 00 
  1148)       606.2  Rx         0B41  8  7F A8 78 8D 87 7A 00 80 
  1149)       606.5  Rx         00DE  8  00 93 07 FF 00 73 30 6C 
  1150)       606.7  Rx         00FF  8  00 93 07 FF 04 00 00 FF 
  1151)       609.6  Rx         03D4  8  00 00 00 00 00 00 00 00 
  1152)       609.9  Rx         00F3  8  54 FF 01 2F 1D 09 70 97 
  1153)       610.7  Rx         02F1  8  83 40 40 00 FF 70 FF FF 
  1154)       611.0  Rx         02F3  8  44 FF 00 00 01 35 00 FF 
  1155)       612.8  Rx         0207  8  00 00 1B 20 02 DB 3F 8C 
  1156)       613.8  Rx         0018  8  10 04 10 00 04 FF 10 D2 
  1157)       614.0  Rx         0073  8  05 00 75 6A 00 80 70 A4 
  1158)       614.2  Rx         006D  4  40 C0 10 7F 
  1159)       614.7  Rx         0105  8  07 2C 7F 4F 4B 8E D4 D9 
  1160)       614.9  Rx         01CD  8  29 EE 69 EE 29 EE A0 47 
  1161)       615.4  Rx         0005  8  00 10 00 01 09 00 10 CD 
  1162)       615.6  Rx         02F7  6  7F FE 00 93 FF FF 
  1163)       615.8  Rx         005F  8  00 00 08 00 00 00 00 7D 
  1164)       616.1  Rx         037E  8  B5 64 5E FF FF FF 00 FF 
  1165)       616.3  Rx         00FE  8  00 93 07 FF 00 8F 00 FF 
  1166)       616.6  Rx         0101  8  00 00 80 00 00 00 10 E4 
  1167)       616.8  Rx         0176  4  03 00 10 B0 
  1168)       617.1  Rx         0203  8  44 61 44 62 44 66 44 67 
  1169)       617.8  Rx         01CF  8  00 00 02 00 20 00 B0 82 
  1170)       618.1  Rx         01D8  8  00 00 00 00 00 00 B0 66 
  1171)       619.5  Rx         0069  2  0C 01 
  1172)       619.9  Rx         00F3  8  54 FF 01 2E 1D 09 80 75 
  1173)       621.6  Rx         034B  5  80 73 78 6F 6F 
  1174)       622.7  Rx         00DD  8  0C 80 00 00 00 00 A0 B0 
  1175)       623.0  Rx         0206  8  00 00 3D 8E 0C 01 FA A6 
  1176)       623.7  Rx         0018  8  10 04 10 00 04 FF 20 98 
  1177)       624.0  Rx         0073  8  05 00 75 6A 00 80 80 DB 
  1178)       624.2  Rx         0045  8  00 00 40 00 00 00 01 88 
  1179)       624.5  Rx         006D  4  40 C0 20 35 
  1180)       625.4  Rx         00D5  8  00 00 40 50 00 00 20 A3 
  1181)       625.7  Rx         0104  8  00 00 03 00 FF 00 20 3D 
  1182)       625.9  Rx         0201  8  F1 69 AF 8A 00 00 00 00 
  1183)       626.1  Rx         014B  8  0A 00 0D A8 07 11 D0 A3 
  1184)       626.4  Rx         00DE  8  00 93 07 FF 00 73 40 35 
  1185)       626.6  Rx         00FF  8  00 93 07 FF 04 00 00 FF 
  1186)       626.9  Rx         01CD  8  29 EF 69 EF 29 EF B0 1D 
  1187)       627.1  Rx         0B41  8  7F BA 78 8D 89 7B 10 80 
  1188)       629.9  Rx         00F3  8  54 FF 01 2D 1C 09 90 8D 
  1189)       630.7  Rx         02F1  8  83 40 40 00 FF 70 FF FF 
  1190)       631.0  Rx         02F3  8  44 FF 00 00 01 35 00 FF 
  1191)       633.7  Rx         0018  8  10 04 10 00 04 FF 30 55 
  1192)       634.0  Rx         0073  8  05 00 75 6A 00 80 90 16 
  1193)       634.1  Rx         006D  4  40 C0 30 F8 
  1194)       635.1  Rx         0105  8  07 21 7F 4E 4A 8E E4 C8 
  1195)       635.4  Rx         01CD  8  29 F2 69 F2 29 F2 C0 FC 
  1196)       635.6  Rx         0005  8  00 10 00 00 09 00 20 1A 
  1197)       635.8  Rx         02F7  6  7F FE 00 93 FF FF 
  1198)       636.0  Rx         005F  8  00 00 08 00 00 00 10 B0 
  1199)       636.3  Rx         00FE  8  00 93 07 FF 00 8F 00 FF 
  1200)       636.6  Rx         0101  8  00 00 80 00 00 00 20 AE 
  1201)       636.9  Rx         0176  4  03 00 20 FA 
  1202)       637.1  Rx         0203  8  44 61 44 61 44 64 44 68 
  1203)       638.4  Rx         01CF  8  00 00 02 00 20 00 C0 DB 
  1204)       638.7  Rx         017E  8  00 00 00 00 00 00 00 00 
  1205)       638.9  Rx         0183  8  89 00 00 00 00 00 00 00 
  1206)       639.2  Rx         01D8  8  00 00 00 00 00 00 C0 3F 
  1207)       639.4  Rx         0378  8  00 50 52 15 59 50 10 00 
  1208)       639.9  Rx         00F3  8  54 FF 01 2D 1C 09 A0 C7 
  1209)       641.6  Rx         034B  5  80 73 78 6F 6F 
  1210)       642.7  Rx         00DD  8  0C 80 00 00 00 00 B0 7D 
  1211)       643.0  Rx         0375  8  00 10 34 25 3F 00 00 00 
  1212)       643.2  Rx         03C5  8  30 00 03 00 F0 00 00 00 
  1213)       643.8  Rx         0018  8  10 04 10 00 04 FF 40 0C 
  1214)       644.0  Rx         0073  8  05 00 75 6A 00 80 A0 5C 
  1215)       644.3  Rx         0045  8  00 00 40 00 00 00 11 45 
  1216)       644.5  Rx         02F5  8  44 00 00 00 01 00 00 00 
  1217)       644.7  Rx         006D  4  40 C0 40 A1 
  1218)       645.0  Rx         014B  8  0A 03 0D 9A 07 12 E0 BF 
  1219)       645.2  Rx         01CD  8  29 EF 69 EF 29 EF D0 89 
  1220)       645.6  Rx         00D5  8  00 00 40 50 00 00 30 6E 
  1221)       645.9  Rx         0104  8  00 00 03 00 FF 00 30 F0 
  1222)       646.1  Rx         0201  8  04 7B C1 9C 00 00 00 00 
  1223)       646.3  Rx         0178  4  00 04 00 00 
  1224)       646.5  Rx         00DE  8  00 93 07 FF 00 73 50 F8 
  1225)       646.8  Rx         00FF  8  00 93 07 FF 04 00 00 FF 
  1226)       647.0  Rx         0B41  8  7F A8 78 8D 87 7B 20 80 
  1227)       647.9  Rx         03F3  8  01 90 00 C4 01 90 00 C4 
  1228)       649.6  Rx         00F9  8  80 02 00 5A 34 00 D0 FB 
  1229)       649.9  Rx         00F3  8  54 FF 01 2D 1C 09 B0 0A 
  1230)       650.9  Rx         02F1  8  83 40 40 00 FF 70 FF FF 
  1231)       651.2  Rx         02F3  8  44 FF 00 00 01 35 00 FF 
  1232)       653.8  Rx         0018  8  10 04 10 00 04 FF 50 C1 
  1233)       654.1  Rx         0073  8  05 00 75 6A 00 80 B0 91 
  1234)       654.2  Rx         006D  4  40 C0 50 6C 
  1235)       654.8  Rx         0105  8  07 0C 7F 4E 4A 8E F4 64 
  1236)       655.0  Rx         01CD  8  29 F1 69 F1 29 F1 E0 DF 
  1237)       655.2  Rx         02F7  6  7F FE 00 93 FF FF 
  1238)       655.5  Rx         0005  8  00 10 00 01 09 00 30 4A 
  1239)       655.8  Rx         005F  8  00 00 08 00 00 00 20 FA 
  1240)       656.1  Rx         0101  8  00 00 80 00 00 00 30 63 
  1241)       656.2  Rx         0176  4  03 00 30 37 
  1242)       656.5  Rx         00FE  8  00 93 07 FF 00 8F 00 FF 
  1243)       656.7  Rx         0203  8  44 62 44 62 44 66 44 66 
  1244)       657.8  Rx         03ED  8  00 FE 00 07 42 C0 17 E1 
  1245)       658.0  Rx         01CF  8  00 00 02 00 20 00 D0 16 
  1246)       658.3  Rx         01D8  8  00 00 00 00 00 00 D0 F2 
  1247)       659.9  Rx         00F3  8  54 FF 01 2B 1C 09 C0 3A 
  1248)       661.6  Rx         034B  5  80 74 78 70 70 
  1249)       662.8  Rx         00DD  8  0C 80 00 00 00 00 C0 24 
  1250)       663.1  Rx         0285  8  00 00 00 00 00 00 00 00 
  1251)       663.7  Rx         0018  8  10 04 10 00 04 FF 60 8B 
  1252)       664.0  Rx         0045  8  00 00 40 00 00 00 21 0F 
  1253)       664.2  Rx         0073  8  05 00 75 6A 00 80 C0 C8 
  1254)       664.3  Rx         006D  4  40 C0 60 26 
  1255)       665.4  Rx         00D5  8  00 00 40 50 00 00 40 37 
  1256)       665.7  Rx         0104  8  00 00 03 00 FF 00 40 A9 
  1257)       665.9  Rx         014B  8  0A 06 0D 9A 07 13 F0 7D 
  1258)       666.1  Rx         01CD  8  29 F3 69 F3 29 F3 F0 21 
  1259)       666.3  Rx         0201  8  15 8D D3 AE 00 00 00 00 
  1260)       666.6  Rx         00DE  8  00 93 07 FF 00 73 60 B2 
  1261)       666.9  Rx         00FF  8  00 93 07 FF 04 00 00 FF 
  1262)       667.1  Rx         0B41  8  7F BA 78 8D 87 7B 30 80 
  1263)       667.3  Rx         0415  8  FD 17 BF FF FF FF FF FF 
  1264)       667.9  Rx         0F7A  8  02 DE 5A 10 29 07 F0 E4 
  1265)       669.9  Rx         00F3  8  54 FF 01 2A 1C 09 D0 6A 
  1266)       670.7  Rx         02F1  8  83 40 40 00 FF 70 FF FF 
  1267)       671.0  Rx         02F3  8  44 FF 00 00 01 35 00 FF 
  1268)       672.7  Rx         0283  8  55 05 07 03 01 68 35 5A 
  1269)       673.8  Rx         0018  8  10 04 10 00 04 FF 70 46 
  1270)       674.1  Rx         0073  8  05 00 75 6A 00 80 D0 05 
  1271)       674.2  Rx         006D  4  40 C0 70 EB 
  1272)       675.5  Rx         0005  8  00 10 00 00 09 00 40 8E 
  1273)       675.8  Rx         005F  8  00 00 08 00 00 00 30 37 
  1274)       676.0  Rx         0105  8  07 03 7F 4E 4A 8E 04 DE 
  1275)       676.2  Rx         0101  8  00 00 80 00 00 00 40 3A 
  1276)       676.5  Rx         00FE  8  00 93 07 FF 00 8F 00 FF 
  1277)       676.7  Rx         0176  4  03 00 40 6E 
  1278)       676.9  Rx         01CD  8  29 E9 69 E9 29 E9 00 24 
  1279)       677.1  Rx         0203  8  44 64 44 62 44 66 44 69 
  1280)       677.3  Rx         012D  8  0F 0F 00 00 C0 17 E1 E5 
  1281)       677.6  Rx         0205  8  82 8F 00 00 00 00 00 00 
  1282)       677.9  Rx         0247  8  00 00 00 00 00 00 00 00 
  1283)       678.0  Rx         02F7  6  7F FE 00 93 FF FF 
  1284)       678.3  Rx         030D  8  80 39 8C FF FF 0F 77 81 
  1285)       678.5  Rx         0592  8  05 61 07 80 40 00 00 00 
  1286)       678.8  Rx         01CF  8  00 00 02 00 20 00 E0 5C 
  1287)       679.0  Rx         01D8  8  00 00 00 00 00 00 E0 B8 
  1288)       679.9  Rx         00F3  8  54 FF 01 29 1C 09 E0 9A 
  1289)       681.7  Rx         034B  5  80 74 78 70 70 
  1290)       682.7  Rx         00DD  8  0C 80 00 00 00 00 D0 E9 
  1291)       683.8  Rx         0018  8  10 04 10 00 04 FF 80 39 
  1292)       684.1  Rx         0045  8  00 00 40 00 00 00 31 C2 
  1293)       684.3  Rx         0073  8  05 00 75 6A 00 80 E0 4F 
  1294)       684.5  Rx         006D  4  40 C0 80 94 
  1295)       685.4  Rx         014B  8  0A 0A 0D 9A 07 14 00 F4 
  1296)       685.7  Rx         00D5  8  00 00 40 50 00 00 50 FA 
  1297)       685.9  Rx         01CD  8  29 EC 69 EC 29 EC 10 18 
  1298)       686.1  Rx         0104  8  00 00 03 00 FF 00 50 64 
  1299)       686.4  Rx         0349  8  01 A0 FF 42 8A 64 3F 00 
  1300)       686.6  Rx         00DE  8  00 93 07 FF 00 73 70 7F 
  1301)       686.9  Rx         00FF  8  00 93 07 FF 04 00 00 FF 
  1302)       687.1  Rx         0001  8  4C C1 8F A0 AA 00 37 1F 
  1303)       687.4  Rx         0201  8  28 9F E5 C0 00 00 00 00 
  1304)       687.6  Rx         037D  8  00 00 00 00 00 20 4D 87 
  1305)       687.8  Rx         0B41  8  7F BA 78 8D 88 7B 40 80 
  1306)       688.7  Rx         0015  4  42 FE B0 64 
  1307)       689.9  Rx         00F3  8  54 FF 01 28 1C 09 F0 CA 
  1308)       690.7  Rx         02F1  8  83 40 40 00 FF 70 FF FF 
  1309)       691.0  Rx         02F3  8  44 FF 00 00 01 35 00 FF 
  1310)       693.8  Rx         0018  8  10 04 10 00 04 FF 90 F4 
  1311)       694.1  Rx         006D  4  40 C0 90 59 
  1312)       694.3  Rx         0073  8  05 00 75 6A 00 80 F0 82 
  1313)       695.1  Rx         0105  8  06 F9 7F 4D 49 8E 14 32 
  1314)       695.4  Rx         01CD  8  29 DD 69 DD 29 DD 20 57 
  1315)       695.6  Rx         0005  8  00 10 00 00 09 00 50 43 
  1316)       695.8  Rx         02F7  6  7F FE 00 93 FF FF 
  1317)       696.0  Rx         005F  8  00 00 08 00 00 00 40 6E 
  1318)       696.2  Rx         033D  4  00 40 00 00 
  1319)       696.4  Rx         0101  8  00 00 80 00 00 00 50 F7 
  1320)       696.7  Rx         00FE  8  00 93 07 FF 00 8F 00 FF 
  1321)       696.8  Rx         0176  4  03 00 50 A3 
  1322)       697.1  Rx         0203  8  44 63 44 62 44 69 44 66 
  1323)       697.4  Rx         039D  8  42 7F 01 9E F0 08 00 F7 
  1324)       697.9  Rx         01CF  8  00 00 02 00 20 00 F0 91 
  1325)       698.1  Rx         01D8  8  00 00 00 00 00 00 F0 75 
  1326)       698.3  Rx         0378  8  00 50 53 15 59 50 10 00 
  1327)       700.0  Rx         00F3  8  54 FF 01 27 1C 09 00 DD 
  1328)       701.6  Rx         034B  5  80 73 77 70 70 
  1329)       702.8  Rx         00DD  8  0C 80 00 00 00 00 E0 A3 
  1330)       703.7  Rx         0018  8  10 04 10 00 04 FF A0 BE 
  1331)       704.0  Rx         0045  8  00 00 40 00 00 00 41 9B 
  1332)       704.2  Rx         0073  8  05 00 75 6A 00 80 00 FD 
  1333)       704.4  Rx         006D  4  40 C0 A0 13 
  1334)       705.0  Rx         014B  8  0A 0C 0D 8B 07 15 10 44 
  1335)       705.2  Rx         01CD  8  29 DC 69 DC 29 DC 30 0D 
  1336)       705.5  Rx         00D5  8  00 00 40 50 00 00 60 B0 
  1337)       705.8  Rx         0104  8  00 00 03 00 FF 00 60 2E 
  1338)       706.0  Rx         0201  8  39 B1 F7 D2 00 00 00 00 
  1339)       706.3  Rx         0B41  8  7F BA 78 8D 88 7D 50 80 
  1340)       706.6  Rx         00DE  8  00 93 07 FF 00 73 80 00 
  1341)       706.9  Rx         00FF  8  00 93 07 FF 04 00 00 FF 
  1342)       709.6  Rx         03D4  8  00 00 00 00 00 00 00 00 
  1343)       709.9  Rx         00F3  8  54 FF 01 26 1C 09 10 8D 
  1344)       710.7  Rx         02F1  8  83 40 40 00 FF 70 FF FF 
  1345)       711.0  Rx         02F3  8  44 FF 00 00 01 35 00 FF 
  1346)       713.7  Rx         0018  8  10 04 10 00 04 FF B0 73 
  1347)       714.0  Rx         0073  8  05 00 75 6A 00 80 10 30 
  1348)       714.1  Rx         006D  4  40 C0 B0 DE 
  1349)       714.9  Rx         0105  8  06 F7 7F 4D 49 8E 24 FB 
  1350)       715.2  Rx         01CD  8  29 C6 69 C6 29 C6 40 2E 
  1351)       715.4  Rx         0005  8  00 10 00 00 09 00 60 09 
  1352)       715.6  Rx         02F7  6  7F FE 00 93 FF FF 
  1353)       715.9  Rx         005F  8  00 00 08 00 00 00 50 A3 
  1354)       716.1  Rx         037E  8  B5 64 5E FF FF FF 00 FF 
  1355)       716.3  Rx         0101  8  00 00 80 00 00 00 60 BD 
  1356)       716.6  Rx         00FE  8  00 93 07 FF 00 8F 00 FF 
  1357)       716.8  Rx         0176  4  03 00 60 E9 
  1358)       717.1  Rx         0203  8  44 64 44 63 44 64 44 69 
  1359)       718.4  Rx         01CF  8  00 00 02 00 20 00 00 EE 
  1360)       718.7  Rx         01D8  8  00 00 00 00 00 00 00 0A 
  1361)       719.6  Rx         0069  2  0C 01 
  1362)       719.9  Rx         00F3  8  54 FF 01 25 1C 09 20 7D 
  1363)       721.6  Rx         034B  5  80 73 77 71 71 
  1364)       722.7  Rx         00DD  8  0C 80 00 00 00 00 F0 6E 
  1365)       723.7  Rx         0018  8  10 04 10 00 04 FF C0 2A 
  1366)       724.0  Rx         0073  8  05 00 75 6A 00 80 20 7A 
  1367)       724.2  Rx         0045  8  00 00 40 00 00 00 51 56 
  1368)       724.5  Rx         006D  4  40 C0 C0 87 
  1369)       725.5  Rx         00D5  8  00 00 40 50 00 00 70 7D 
  1370)       725.8  Rx         0104  8  00 00 03 00 FF 00 70 E3 
  1371)       726.0  Rx         014B  8  0A 11 0D 8B 07 15 20 53 
  1372)       726.2  Rx         01CD  8  29 C8 69 C8 29 C8 50 7A 
  1373)       726.5  Rx         0201  8  4C C3 0B E4 00 00 00 00 
  1374)       726.7  Rx         00DE  8  00 93 07 FF 00 73 90 CD 
  1375)       727.0  Rx         00FF  8  00 93 07 FF 04 00 00 FF 
  1376)       727.2  Rx         0B41  8  7F BA 78 8D 87 7D 60 80 
  1377)       727.4  Rx         0178  4  00 04 00 00 
  1378)       727.6  Rx         03F3  8  01 90 00 C4 01 90 00 C4 
  1379)       729.9  Rx         00F3  8  54 FF 01 25 1C 09 30 B0 
  1380)       730.6  Rx         02F1  8  83 40 40 00 FF 70 FF FF 
  1381)       730.9  Rx         02F3  8  44 FF 00 00 01 35 00 FF 
  1382)       733.7  Rx         0018  8  10 04 10 00 04 FF D0 E7 
  1383)       734.0  Rx         0073  8  05 00 75 6A 00 80 30 B7 
  1384)       734.1  Rx         006D  4  40 C0 D0 4A 
  1385)       735.5  Rx         0005  8  00 10 00 01 09 00 70 59 
  1386)       735.8  Rx         0105  8  06 ED 7F 4B 47 8E 34 C4 
  1387)       736.0  Rx         005F  8  00 00 08 06 00 00 60 80 
  1388)       736.2  Rx         01CD  8  29 BF 69 BF 29 BF 60 4E 
  1389)       736.5  Rx         0101  8  00 00 80 00 00 00 70 70 
  1390)       736.7  Rx         00FE  8  00 93 07 FF 00 8F 00 FF 
  1391)       736.9  Rx         0176  4  03 00 70 24 
  1392)       737.1  Rx         02F7  6  7F FE 00 93 FF FF 
  1393)       737.3  Rx         0203  8  44 65 44 63 44 67 44 68 
  1394)       737.5  Rx         03ED  8  00 FE 00 07 42 C0 17 E1 
  1395)       737.8  Rx         01CF  8  00 00 02 00 20 00 10 23 
  1396)       738.1  Rx         01D8  8  00 00 00 00 00 00 10 C7 
  1397)       739.9  Rx         00F3  8  54 FF 01 24 1C 09 40 74 
  1398)       741.6  Rx         034B  5  80 73 77 72 72 
  1399)       742.8  Rx         00DD  8  0C 80 00 00 00 00 00 11 
  1400)       743.0  Rx         0375  8  00 10 34 25 3F 00 00 00 
  1401)       743.7  Rx         0018  8  10 04 10 00 04 FF E0 AD 
  1402)       744.0  Rx         0073  8  05 00 75 6A 00 80 40 EE 
  1403)       744.2  Rx         0045  8  00 00 40 00 00 00 61 1C 
  1404)       744.5  Rx         006D  4  40 C0 E0 00 
  1405)       745.6  Rx         00D5  8  00 00 40 50 00 00 80 02 
  1406)       745.8  Rx         014B  8  0A 14 0D 7D 07 17 30 E2 
  1407)       746.0  Rx         0104  8  00 00 03 00 FF 00 80 9C 
  1408)       746.2  Rx         01CD  8  29 BB 69 BB 29 BB 70 E5 
  1409)       746.5  Rx         0201  8  5D D5 1C F6 00 00 00 00 
  1410)       746.7  Rx         00DE  8  00 93 07 FF 00 73 A0 87 
  1411)       747.0  Rx         00FF  8  00 93 07 FF 04 00 00 FF 
  1412)       747.2  Rx         0B41  8  7F A8 78 8D 87 7D 70 80 
  1413)       747.4  Rx         03C5  8  30 00 03 00 F0 00 00 00 
  1414)       748.6  Rx         00F9  8  80 02 00 5A 34 00 E0 B1 
  1415)       749.9  Rx         00F3  8  54 FF 01 24 1C 09 50 B9 
  1416)       750.7  Rx         02F1  8  83 40 40 00 FF 70 FF FF 
  1417)       750.9  Rx         02F3  8  44 FF 00 00 01 35 00 FF 
  1418)       751.6  Rx         0379  2  00 00 
  1419)       753.8  Rx         0018  8  10 04 10 00 04 FF F0 60 
  1420)       754.0  Rx         0073  8  05 00 75 6A 00 80 50 23 
  1421)       754.2  Rx         006D  4  40 C0 F0 CD 
  1422)       755.0  Rx         0105  8  06 E3 7F 4A 46 8E 44 0C 
  1423)       755.2  Rx         01CD  8  29 B2 69 B2 29 B2 80 C1 
  1424)       755.4  Rx         02F7  6  7F FE 00 93 FF FF 
  1425)       755.7  Rx         0005  8  00 10 00 00 09 00 80 BB 
  1426)       755.9  Rx         005F  8  00 00 08 01 00 00 70 B9 
  1427)       756.2  Rx         0101  8  00 00 80 00 00 00 80 0F 
  1428)       756.4  Rx         0176  4  03 00 80 5B 
  1429)       756.7  Rx         00FE  8  00 93 07 FF 00 8F 00 FF 
  1430)       756.9  Rx         0203  8  44 66 44 63 44 67 44 69 
  1431)       758.5  Rx         01CF  8  00 00 02 00 20 00 20 69 
  1432)       758.7  Rx         01D8  8  00 00 00 00 00 00 20 8D 
  1433)       759.9  Rx         00F3  8  54 FF 01 23 1C 09 60 07 
  1434)       761.7  Rx         034B  5  80 73 76 73 73 
  1435)       762.8  Rx         00DD  8  0C 80 00 00 00 00 10 DC 
  1436)       763.7  Rx         0018  8  10 04 10 00 04 FF 00 1F 
  1437)       764.0  Rx         0045  8  00 00 40 00 00 00 71 D1 
  1438)       764.2  Rx         0073  8  05 00 75 6A 00 80 60 69 
  1439)       764.4  Rx         006D  4  40 C0 00 B2 
  1440)       765.2  Rx         014B  8  0A 16 0D 7D 07 17 40 37 
  1441)       765.4  Rx         00D5  8  00 00 40 50 00 00 90 CF 
  1442)       765.7  Rx         01CD  8  29 B5 69 B5 29 B5 90 CE 
  1443)       765.9  Rx         0104  8  00 00 03 00 FF 00 90 51 
  1444)       766.2  Rx         0201  8  6F E7 2F 0A 00 00 00 00 
  1445)       766.4  Rx         0B41  8  7F BA 78 8D 88 7D 80 80 
  1446)       766.8  Rx         00DE  8  00 93 07 FF 00 73 B0 4A 
  1447)       767.1  Rx         00FF  8  00 93 07 FF 04 00 00 FF 
  1448)       767.3  Rx         0F7A  8  02 E1 5A 10 29 07 F0 E4 
  1449)       767.5  Rx         0417  8  FD 18 04 0F 10 00 00 00 
  1450)       768.3  Rx         0285  8  00 00 00 00 00 00 00 00 
  1451)       769.9  Rx         00F3  8  54 FF 01 23 1C 09 70 CA 
  1452)       770.7  Rx         02F1  8  83 40 40 00 FF 70 FF FF 
  1453)       771.0  Rx         02F3  8  44 FF 00 00 01 35 00 FF 
  1454)       773.8  Rx         0018  8  10 04 10 00 04 FF 10 D2 
  1455)       774.1  Rx         0073  8  05 00 75 6A 00 80 70 A4 
  1456)       774.2  Rx         006D  4  40 C0 10 7F 
  1457)       775.5  Rx         0005  8  00 10 00 00 09 00 90 76 
  1458)       775.8  Rx         005F  8  00 00 08 0B 00 00 80 7D 
  1459)       776.0  Rx         0105  8  06 D7 7F 49 46 8E 54 42 
  1460)       776.2  Rx         0101  8  00 00 80 00 00 00 90 C2 
  1461)       776.5  Rx         01CD  8  29 B4 69 B4 29 B4 A0 13 
  1462)       776.6  Rx         0176  4  03 00 90 96 
  1463)       776.8  Rx         00FE  8  00 93 07 FF 00 8F 00 FF 
  1464)       777.1  Rx         0203  8  44 64 44 64 44 66 44 69 
  1465)       777.3  Rx         012D  8  0F 0F 00 00 C0 17 E1 E5 
  1466)       777.6  Rx         0205  8  82 8F 00 00 00 00 00 00 
  1467)       777.8  Rx         0247  8  00 00 00 00 00 00 00 00 
  1468)       778.0  Rx         01CF  8  00 00 02 00 20 00 30 A4 
  1469)       778.3  Rx         01D8  8  00 00 00 00 00 00 30 40 
  1470)       778.5  Rx         0283  8  55 05 07 03 01 68 35 5A 
  1471)       778.8  Rx         02F7  6  7F FE 00 93 FF FF 
  1472)       779.0  Rx         030D  8  80 39 8C FF FF 0E DE 81 
  1473)       779.9  Rx         00F3  8  54 FF 01 23 1C 09 80 B5 
  1474)       781.7  Rx         034B  5  80 73 76 74 74 
  1475)       782.7  Rx         00DD  8  0C 80 00 00 00 00 20 96 
  1476)       783.8  Rx         0018  8  10 04 10 00 04 FF 20 98 
  1477)       784.1  Rx         0045  8  00 00 40 00 00 00 81 AE 
  1478)       784.4  Rx         0073  8  05 00 75 6A 00 80 80 DB 
  1479)       784.6  Rx         006D  4  40 C0 20 35 
  1480)       785.3  Rx         00D5  8  00 00 40 50 00 00 A0 85 
  1481)       785.6  Rx         0104  8  00 00 03 00 FF 00 A0 1B 
  1482)       785.9  Rx         0201  8  81 F9 41 1C 00 00 00 00 
  1483)       786.1  Rx         014B  8  0A 18 0D 7D 07 18 50 DA 
  1484)       786.3  Rx         01CD  8  29 B8 69 B8 29 B8 B0 74 
  1485)       786.6  Rx         0B41  8  7F A8 78 8D 89 7D 90 80 
  1486)       786.8  Rx         00DE  8  00 93 07 FF 00 73 C0 13 
  1487)       787.0  Rx         00FF  8  00 93 07 FF 04 00 00 FF 
  1488)       787.3  Rx         0001  8  4C C1 8F A0 AA 00 47 46 
  1489)       787.5  Rx         0349  8  01 A0 FF 42 8A 64 3F 00 
  1490)       789.9  Rx         00F3  8  54 FF 01 23 1C 09 90 78 
  1491)       790.7  Rx         02F1  8  83 40 40 00 FF 70 FF FF 
  1492)       791.0  Rx         02F3  8  44 FF 00 00 01 35 00 FF 
  1493)       793.8  Rx         0018  8  10 04 10 00 04 FF 30 55 
  1494)       794.0  Rx         006D  4  40 C0 30 F8 
  1495)       794.2  Rx         0073  8  05 00 75 6A 00 80 90 16 
  1496)       795.5  Rx         0005  8  00 10 00 00 09 00 A0 3C 
  1497)       795.8  Rx         005F  8  00 00 07 F8 00 00 90 B8 
  1498)       796.0  Rx         0101  8  00 00 80 00 00 00 A0 88 
  1499)       796.3  Rx         0105  8  06 D1 7F 49 46 8E 64 81 
  1500)       796.5  Rx         0176  4  03 00 A0 DC 
  1501)       796.7  Rx         01CD  8  29 AF 69 AF 29 AF C0 6A 
  1502)       796.9  Rx         00FE  8  00 93 07 FF 00 8F 00 FF 
  1503)       797.1  Rx         0203  8  44 66 44 63 44 6C 44 6B 
  1504)       797.3  Rx         02F7  6  7F FE 00 93 FF FF 
  1505)       797.5  Rx         033D  4  00 40 00 00 
  1506)       797.7  Rx         039D  8  42 7F 01 9E F0 08 00 7F 
  1507)       798.5  Rx         01CF  8  00 00 02 00 20 00 40 FD 
  1508)       798.8  Rx         01D8  8  00 00 00 00 00 00 40 19 
  1509)       800.0  Rx         00F3  8  54 FF 01 22 1C 09 A0 AF 
  1510)       801.7  Rx         034B  5  80 73 76 74 74 
  1511)       802.8  Rx         00DD  8  0C 80 00 00 00 00 30 5B 
  1512)       803.7  Rx         0018  8  10 04 10 00 04 FF 40 0C 
  1513)       804.0  Rx         0045  8  00 00 40 00 00 00 91 63 
  1514)       804.2  Rx         0073  8  05 00 75 6A 00 80 A0 5C 
  1515)       804.4  Rx         006D  4  40 C0 40 A1 
  1516)       805.2  Rx         014B  8  0A 18 0D 79 07 19 60 92 
  1517)       805.5  Rx         00D5  8  00 00 40 50 00 00 B0 48 
  1518)       805.6  Rx         01CD  8  29 B2 69 B2 29 B2 D0 1F 
  1519)       805.9  Rx         0104  8  00 00 03 00 FF 00 B0 D6 
  1520)       806.1  Rx         0178  4  00 04 00 00 
  1521)       806.3  Rx         0201  8  93 0C 53 2E 00 00 00 00 
  1522)       806.5  Rx         0202  4  02 00 00 F2 
  1523)       806.7  Rx         0B41  8  7F A8 78 8D 86 7E A0 80 
  1524)       807.0  Rx         00DE  8  00 93 07 FF 00 73 D0 DE 
  1525)       807.3  Rx         00FF  8  00 93 07 FF 04 00 00 FF 
  1526)       807.8  Rx         03F3  8  01 90 00 C4 01 90 00 C4 
  1527)       809.9  Rx         00F3  8  54 FF 01 21 1C 09 B0 D8 
  1528)       810.6  Rx         03D4  8  00 00 00 00 00 00 00 00 
  1529)       810.9  Rx         02F1  8  83 40 40 00 FF 70 FF FF 
  1530)       811.1  Rx         02F3  8  44 FF 00 00 01 35 00 FF 
  1531)       813.7  Rx         0018  8  10 04 10 00 04 FF 50 C1 
  1532)       813.9  Rx         006D  4  40 C0 50 6C 
  1533)       814.1  Rx         0073  8  05 00 75 6A 00 80 B0 91 
  1534)       815.4  Rx         0105  8  06 C2 7F 48 45 8E 74 83 
  1535)       815.6  Rx         0005  8  00 10 00 01 09 00 B0 6C 
  1536)       815.8  Rx         01CD  8  29 AA 69 AA 29 AA E0 1C 
  1537)       816.1  Rx         005F  8  00 00 07 FF 00 00 A0 06 
  1538)       816.3  Rx         02F7  6  7F FE 00 93 FF FF 
  1539)       816.6  Rx         0101  8  00 00 80 00 00 00 B0 45 
  1540)       816.8  Rx         037E  8  B5 64 5E FF FF FF 00 FF 
  1541)       817.0  Rx         00FE  8  00 93 07 FF 00 8F 00 FF 
  1542)       817.2  Rx         0176  4  03 00 B0 11 
  1543)       817.5  Rx         0203  8  44 66 44 68 44 6C 44 6A 
  1544)       817.7  Rx         03ED  8  00 FE 00 07 42 C0 17 E1 
  1545)       817.9  Rx         01CF  8  00 00 02 00 20 00 50 30 
  1546)       818.2  Rx         01D8  8  00 00 00 00 00 00 50 D4 
  1547)       819.5  Rx         0069  2  0C 01 
  1548)       819.9  Rx         00F3  8  54 FF 01 1F 1C 09 C0 1B 
  1549)       821.6  Rx         034B  5  80 74 77 75 75 
